#Time       v(n1)      v(n2)      v(n3)      v(n4)      v(n5)      i(r1)      method(c1) hidden(0)  dis(n5)    v(r1)      ord(v1)    ord(c1)   
 0.         0.         0.         0.         0.         0.         0.        -1.         0.         0.         0.        -1.        -1.        
 0.1        0.         0.         0.         0.         0.         0.         4.         0.         0.         0.         0.         0.        
 0.2        0.         0.         0.         0.         0.         0.         2.         0.         0.         0.         1.         1.        
 0.3        0.         0.         0.         0.         0.         0.         2.         0.         0.         0.         2.         2.        
 0.4        0.         0.         0.         0.         0.         0.         2.         0.         0.         0.         3.         2.        
 0.5        0.         0.         0.         0.         0.         0.         2.         0.         0.         0.         3.         2.        
 1.         0.         0.         0.         0.         0.         0.         2.         0.         2.         0.         3.         2.        
 1.001      1.         0.99752    0.99505    0.99257    0.9901     9.901u     4.         0.         2.         0.0024752  0.         0.        
 1.         0.013889   0.012435   0.010982   0.0095284  0.0080749  5.814u     4.         0.         2.         0.0014535  0.         0.        
 1.         192.9u     145.59u    98.276u    50.963u    3.6507u    189.25n    4.         0.         0.         47.313u    0.         0.        
 1.         932.66u    710.38u    488.1u     265.82u    43.538u    889.12n    2.         0.         0.         222.28u    1.         1.        
 1.         0.0016724  0.0012877  902.89u    518.12u    133.35u    1.5391u    2.         0.         0.         384.77u    2.         2.        
 1.         0.0030971  0.002431   0.001765   0.0010989  432.78u    2.6643u    2.         0.         0.         666.09u    3.         2.        
 1.         0.0045218  0.0036118  0.0027018  0.0017919  881.87u    3.64u      2.         0.         0.         909.99u    3.         2.        
 1.         0.0068194  0.0055817  0.0043441  0.0031064  0.0018688  4.9507u    2.         0.         0.         0.0012377  3.         2.        
 1.         0.009117   0.0076192  0.0061214  0.0046236  0.0031257  5.9912u    2.         0.         0.         0.0014978  3.         2.        
 1.         0.012835   0.011023   0.0092107  0.0073987  0.0055867  7.248u     2.         0.         0.         0.001812   3.         2.        
 1.         0.016552   0.014525   0.012497   0.010469   0.0084417  8.1107u    2.         0.         0.         0.0020277  3.         2.        
 1.         0.022745   0.020494   0.018243   0.015992   0.013741   9.0041u    2.         0.         0.         0.002251   3.         2.        
 1.         0.028938   0.026569   0.024201   0.021832   0.019463   9.475u     2.         0.         0.         0.0023688  3.         2.        
 1.         0.039~     0.037~     0.034~     0.032~     0.0~       9.84~u     2.         0.         0.         0.00246~   3.         2.        
 1.0001     0.050~     0.04~      0.045~     0.043~     0.040~     9.95~u     2.         0.         0.         0.00248~   3.         2.        
 1.0001     0.073~     0.07~      0.068~     0.066~     0.063~     10.00~u    2.         0.         0.         0.00250~   3.         2.        
 1.0001     0.1~       0.10~      0.104~     0.101~     0.099~     9.999~u    2.         0.         0.         0.00249~   3.         2.        
 1.0002     0.1~       0.18~      0.183~     0.181~     0.178~     ~~.u       2.         0.         0.         0.00250~   3.         2.        
 1.0004     0.3~       0.39~      0.390~     0.388~     0.385~     9.9996u    2.         0.         0.         0.00249~   3.         2.        
 1.001      1.         0.9975     0.995~     0.992~     0.99       10.u       2.         0.         2.         0.00250~   3.         2.        
 1.006~     1.         1.         0.999~     0.999~     0.99998    18.~n      4.         0.         0.         4.6~n      0.         0.        
 1.011~     1.         1.         1.         1.         1.        -18.~n      2.         0.         0.        -4.~n       1.         1.        
 1.027~     1.         1.         0.99999    0.99999    0.99998    18.~n      2.         0.         0.         4.~n       2.         2.        
 1.04~      1.         1.         1.         1.         1.        -18.~n      2.         0.         0.        -4.~n       3.         2.        
 1.13~      1.         1.         0.99999    0.99999    0.99998    18.~n      2.         0.         0.         4.~n       3.         2.        
 1.3~       1.         1.         1.         1.         1.        -18.~n      2.         0.         0.        -4.~n       3.         2.        
 1.8~       1.         1.         0.99999    0.99999    0.99998    18.~n      2.         0.         0.         4.~n       3.         2.        
 3.51~      1.         1.         1.         1.         1.        -18.~n      2.         0.         0.        -4.~n       3.         2.        
 6.75~      1.         1.         0.99999    0.99999    0.99998    18.~n      2.         0.         0.         4.~n       3.         2.        
 10.        1.         1.         1.         1.         1.        -18.~n      2.         0.         0.        -4.~n       3.         2.        
Gnucap   System status
iterations: op=0, dc=0, tran=132, fourier=0, total=169
transient timesteps: accepted=35, rejected=2, total=37
nodes: user=5, subckt=0, model=0, total=5
dctran density=52.0%, ac density=52.0%
