'switch capacitor filter.  Use tr 0 50u .1u.  Gen freq 100k 
#Time       v(1)       v(2)       v(3)      
 0.         0.         0.         0.        
 100.n      0.062791   0.039141   0.023649  
 200.n      0.12533    0.070472   0.054862  
 300.n      0.18738    0.10143    0.085951  
 400.n      0.24869    0.13198    0.11671   
 500.n      0.30902    0.16202    0.147     
 600.n      0.36812    0.22112    0.049     
 700.n      0.42578    0.27878    0.0061515 
 800.n      0.48175    0.33475    766.83u   
 900.n      0.53583    0.38883    95.591u   
 1.u        0.58779    0.44079    11.916u   
 1.1u       0.63742    0.27731    0.21312   
 1.2u       0.68455    0.27497    0.26259   
 1.3u       0.72897    0.29646    0.28552   
 1.4u       0.77051    0.31686    0.30666   
 1.5u       0.80902    0.33573    0.3263    
 1.6u       0.84433    0.37104    0.10877   
 1.7u       0.87631    0.40302    0.036255  
 1.8u       0.90483    0.43154    0.0047668 
 1.9u       0.92978    0.45649    529.65u   
 2.u        0.95106    0.47777    58.85u    
 2.1u       0.96858    0.2775     0.21786   
 2.2u       0.98229    0.25653    0.25253   
 2.3u       0.99211    0.26056    0.25833   
 2.4u       0.99803    0.26302    0.26178   
 2.5u       1.         0.26351    0.26326   
 2.6u       0.99803    0.26154    0.087754  
 2.7u       0.99211    0.25562    0.029251  
 2.8u       0.98229    0.2458     0.003846  
 2.9u       0.96858    0.23209    427.33u   
 3.u        0.95106    0.21457    47.481u   
 3.1u       0.92978    0.10682    0.086511  
 3.2u       0.90483    0.081167   0.087217  
 3.3u       0.87631    0.066259   0.073605  
 3.4u       0.84433    0.049839   0.058046  
 3.5u       0.80902    0.03177    0.040804  
 3.6u       0.77051   -0.0067341  0.013601  
 3.7u       0.72897   -0.048279   0.0045338 
 3.8u       0.68455   -0.0927     596.11u   
 3.9u       0.63742   -0.13982    66.234u   
 4.u        0.58779   -0.18946    7.3593u   
 4.1u       0.53583   -0.13753   -0.10388   
 4.2u       0.48175   -0.15472   -0.14077   
 4.3u       0.42578   -0.18278   -0.16868   
 4.4u       0.36812   -0.21181   -0.1973    
 4.5u       0.30902   -0.24154   -0.22668   
 4.6u       0.24869   -0.30187   -0.07556   
 4.7u       0.18738   -0.36318   -0.025187  
 4.8u       0.12533   -0.42523   -0.0033115 
 4.9u       0.062791  -0.48777   -367.95u   
 5.u        4.f       -0.55056   -40.883u   
 5.1u      -0.062791  -0.3458    -0.26759   
 5.2u      -0.12533   -0.34624   -0.3297    
 5.3u      -0.18738   -0.37673   -0.36125   
 5.4u      -0.24869   -0.40728   -0.39201   
 5.5u      -0.30902   -0.43732   -0.4223    
 5.6u      -0.36812   -0.49643   -0.14077   
 5.7u      -0.42578   -0.55408   -0.046922  
 5.8u      -0.48175   -0.61005   -0.0061693 
 5.9u      -0.53583   -0.66413   -685.48u   
 6.u       -0.58779   -0.71609   -76.165u   
 6.1u      -0.63742   -0.4302    -0.3356    
 6.2u      -0.68455   -0.41287   -0.40005   
 6.3u      -0.72897   -0.43415   -0.4232    
 6.4u      -0.77051   -0.45455   -0.44434   
 6.5u      -0.80902   -0.47341   -0.46398   
 6.6u      -0.84433   -0.50872   -0.15466   
 6.7u      -0.87631   -0.5407    -0.051553  
 6.8u      -0.90483   -0.56922   -0.0067782 
 6.9u      -0.92978   -0.59417   -753.14u   
 7.u       -0.95106   -0.61545   -83.682u   
 7.1u      -0.96858   -0.3544    -0.27867   
 7.2u      -0.98229   -0.3255    -0.32126   
 7.3u      -0.99211   -0.32941   -0.32719   
 7.4u      -0.99803   -0.33187   -0.33064   
 7.5u      -1.        -0.33236   -0.33212   
 7.6u      -0.99803   -0.33039   -0.11071   
 7.7u      -0.99211   -0.32448   -0.036902  
 7.8u      -0.98229   -0.31465   -0.0048519 
 7.9u      -0.96858   -0.30095   -539.1u    
 8.u       -0.95106   -0.28342   -59.899u   
 8.1u      -0.92978   -0.14528   -0.11692   
 8.2u      -0.90483   -0.11566   -0.12159   
 8.3u      -0.87631   -0.10069   -0.10804   
 8.4u      -0.84433   -0.084272  -0.092479  
 8.5u      -0.80902   -0.066203  -0.075237  
 8.6u      -0.77051   -0.027699  -0.025079  
 8.7u      -0.72897    0.013846  -0.0083597 
 8.8u      -0.68455    0.058267  -0.0010991 
 8.9u      -0.63742    0.10539   -122.13u   
 9.u       -0.58779    0.15503   -13.57u    
 9.1u      -0.53583    0.1183     0.088671  
 9.2u      -0.48175    0.13747    0.12358   
 9.3u      -0.42578    0.16556    0.15146   
 9.4u      -0.36812    0.1946     0.18008   
 9.5u      -0.30902    0.22432    0.20946   
 9.6u      -0.24869    0.28465    0.06982   
 9.7u      -0.18738    0.34596    0.023273  
 9.8u      -0.12533    0.40801    0.00306   
 9.9u      -0.062791   0.47055    340.u     
 10.u       4.f        0.53334    37.777u   
 10.1u      0.062791   0.33618    0.25999   
 10.2u      0.12533    0.33761    0.3211    
 10.3u      0.18738    0.36812    0.35264   
 10.4u      0.24869    0.39867    0.3834    
 10.5u      0.30902    0.42871    0.41369   
 10.6u      0.36812    0.48781    0.1379    
 10.7u      0.42578    0.54547    0.045965  
 10.8u      0.48175    0.60144    0.0060435 
 10.9u      0.53583    0.65552    671.5u    
 11.u       0.58779    0.70747    74.611u   
 11.1u      0.63742    0.42539    0.33179   
 11.2u      0.68455    0.40856    0.39576   
 11.3u      0.72897    0.42984    0.41889   
 11.4u      0.77051    0.45024    0.44004   
 11.5u      0.80902    0.46911    0.45967   
 11.6u      0.84433    0.50442    0.15322   
 11.7u      0.87631    0.5364     0.051075  
 11.8u      0.90483    0.56492    0.0067153 
 11.9u      0.92978    0.58987    746.15u   
 12.u       0.95106    0.61115    82.905u   
 12.1u      0.96858    0.35199    0.27676   
 12.2u      0.98229    0.32335    0.31911   
 12.3u      0.99211    0.32726    0.32503   
 12.4u      0.99803    0.32972    0.32848   
 12.5u      1.         0.33021    0.32996   
 12.6u      0.99803    0.32824    0.10999   
 12.7u      0.99211    0.32232    0.036663  
 12.8u      0.98229    0.3125     0.0048204 
 12.9u      0.96858    0.29879    535.6u    
 13.u       0.95106    0.28127    59.511u   
 13.1u      0.92978    0.14408    0.11597   
 13.2u      0.90483    0.11459    0.12051   
 13.3u      0.87631    0.099615   0.10696   
 13.4u      0.84433    0.083195   0.091402  
 13.5u      0.80902    0.065126   0.07416   
 13.6u      0.77051    0.026622   0.02472   
 13.7u      0.72897   -0.014923   0.00824   
 13.8u      0.68455   -0.059344   0.0010834 
 13.9u      0.63742   -0.10647    120.38u   
 14.u       0.58779   -0.15611    13.375u   
 14.1u      0.53583   -0.1189    -0.089147  
 14.2u      0.48175   -0.13801   -0.12411   
 14.3u      0.42578   -0.1661    -0.152     
 14.4u      0.36812   -0.19513   -0.18062   
 14.5u      0.30902   -0.22486   -0.21      
 14.6u      0.24869   -0.28519   -0.069999  
 14.7u      0.18738   -0.3465    -0.023333  
 14.8u      0.12533   -0.40855   -0.0030678 
 14.9u      0.062791  -0.47109   -340.87u   
 15.u      -26.f      -0.53388   -37.875u   
 15.1u     -0.062791  -0.33648   -0.26022   
 15.2u     -0.12533   -0.33788   -0.32137   
 15.3u     -0.18738   -0.36839   -0.35291   
 15.4u     -0.24869   -0.39894   -0.38367   
 15.5u     -0.30902   -0.42898   -0.41396   
 15.6u     -0.36812   -0.48808   -0.13799   
 15.7u     -0.42578   -0.54574   -0.045995  
 15.8u     -0.48175   -0.60171   -0.0060475 
 15.9u     -0.53583   -0.65579   -725.7u    
 16.u      -0.58779   -0.70774   -87.084u   
 16.1u     -0.63742   -0.42353   -0.33394   
 16.2u     -0.68455   -0.40865   -0.39595   
 16.3u     -0.72897   -0.42998   -0.41904   
 16.4u     -0.77051   -0.45038   -0.44018   
 16.5u     -0.80902   -0.46925   -0.45981   
 16.6u     -0.84433   -0.50456   -0.15327   
 16.7u     -0.87631   -0.53654   -0.05109   
 16.8u     -0.90483   -0.56506   -0.0067174 
 16.9u     -0.92978   -0.59001   -806.08u   
 17.u      -0.95106   -0.61129   -96.73u    
 17.1u     -0.96858   -0.35031   -0.27861   
 17.2u     -0.98229   -0.32343   -0.31918   
 17.3u     -0.99211   -0.32733   -0.32511   
 17.4u     -0.99803   -0.32979   -0.32856   
 17.5u     -1.        -0.33029   -0.33004   
 17.6u     -0.99803   -0.32831   -0.11001   
 17.7u     -0.99211   -0.3224    -0.036671  
 17.8u     -0.98229   -0.31257   -0.0048215 
 17.9u     -0.96858   -0.29887   -578.58u   
 18.u      -0.95106   -0.28134   -69.43u    
 18.1u     -0.92978   -0.14328   -0.11686   
 18.2u     -0.90483   -0.11462   -0.12056   
 18.3u     -0.87631   -0.099659  -0.107     
 18.4u     -0.84433   -0.083239  -0.091446  
 18.5u     -0.80902   -0.065169  -0.074204  
 18.6u     -0.77051   -0.026666  -0.024735  
 18.7u     -0.72897    0.014879  -0.0082449 
 18.8u     -0.68455    0.059301  -0.001084  
 18.9u     -0.63742    0.10642   -130.08u   
 19.u      -0.58779    0.15606   -15.61u    
 19.1u     -0.53583    0.11848    0.089528  
 19.2u     -0.48175    0.13798    0.1241    
 19.3u     -0.42578    0.16608    0.15197   
 19.4u     -0.36812    0.19511    0.1806    
 19.5u     -0.30902    0.22484    0.20998   
 19.6u     -0.24869    0.28517    0.069992  
 19.7u     -0.18738    0.34647    0.023331  
 19.8u     -0.12533    0.40852    0.0030675 
 19.9u     -0.062791   0.47107    368.1u    
 20.u       1.f        0.53386    44.172u   
 20.1u      0.062791   0.33498    0.26171   
 20.2u      0.12533    0.33785    0.32139   
 20.3u      0.18738    0.36838    0.3529    
 20.4u      0.24869    0.39893    0.38366   
 20.5u      0.30902    0.42897    0.41395   
 20.6u      0.36812    0.48807    0.13798   
 20.7u      0.42578    0.54573    0.045994  
 20.8u      0.48175    0.6017     0.0060473 
 20.9u      0.53583    0.65578    725.68u   
 21.u       0.58779    0.70774    87.082u   
 21.1u      0.63742    0.42353    0.33393   
 21.2u      0.68455    0.40864    0.39594   
 21.3u      0.72897    0.42997    0.41903   
 21.4u      0.77051    0.45038    0.44017   
 21.5u      0.80902    0.46924    0.45981   
 21.6u      0.84433    0.50455    0.15327   
 21.7u      0.87631    0.53653    0.05109   
 21.8u      0.90483    0.56505    0.0067173 
 21.9u      0.92978    0.59       806.08u   
 22.u       0.95106    0.61128    96.729u   
 22.1u      0.96858    0.3503     0.2786    
 22.2u      0.98229    0.32343    0.31918   
 22.3u      0.99211    0.32733    0.32511   
 22.4u      0.99803    0.32979    0.32856   
 22.5u      1.         0.33029    0.33004   
 22.6u      0.99803    0.32831    0.11001   
 22.7u      0.99211    0.3224     0.036671  
 22.8u      0.98229    0.31257    0.0048215 
 22.9u      0.96858    0.29887    578.58u   
 23.u       0.95106    0.28134    69.429u   
 23.1u      0.92978    0.14328    0.11686   
 23.2u      0.90483    0.11462    0.12056   
 23.3u      0.87631    0.099658   0.107     
 23.4u      0.84433    0.083238   0.091445  
 23.5u      0.80902    0.065168   0.074203  
 23.6u      0.77051    0.026665   0.024734  
 23.7u      0.72897   -0.01488    0.0082448 
 23.8u      0.68455   -0.059302   0.001084  
 23.9u      0.63742   -0.10642    130.08u   
 24.u       0.58779   -0.15606    15.61u    
 24.1u      0.53583   -0.11848   -0.089528  
 24.2u      0.48175   -0.13798   -0.1241    
 24.3u      0.42578   -0.16608   -0.15197   
 24.4u      0.36812   -0.19511   -0.1806    
 24.5u      0.30902   -0.22484   -0.20998   
 24.6u      0.24869   -0.28517   -0.069992  
 24.7u      0.18738   -0.34648   -0.023331  
 24.8u      0.12533   -0.40852   -0.0030675 
 24.9u      0.062791  -0.47107   -368.1u    
 25.u       29.f      -0.53386   -44.172u   
 25.1u     -0.062791  -0.33498   -0.26171   
 25.2u     -0.12533   -0.33785   -0.32139   
 25.3u     -0.18738   -0.36838   -0.3529    
 25.4u     -0.24869   -0.39893   -0.38366   
 25.5u     -0.30902   -0.42897   -0.41395   
 25.6u     -0.36812   -0.48808   -0.13798   
 25.7u     -0.42578   -0.54573   -0.045994  
 25.8u     -0.48175   -0.6017    -0.0060473 
 25.9u     -0.53583   -0.65578   -725.68u   
 26.u      -0.58779   -0.70774   -87.082u   
 26.1u     -0.63742   -0.42353   -0.33394   
 26.2u     -0.68455   -0.40864   -0.39594   
 26.3u     -0.72897   -0.42997   -0.41903   
 26.4u     -0.77051   -0.45038   -0.44017   
 26.5u     -0.80902   -0.46924   -0.45981   
 26.6u     -0.84433   -0.50456   -0.15327   
 26.7u     -0.87631   -0.53653   -0.05109   
 26.8u     -0.90483   -0.56505   -0.0067173 
 26.9u     -0.92978   -0.59      -806.08u   
 27.u      -0.95106   -0.61128   -96.729u   
 27.1u     -0.96858   -0.3503    -0.2786    
 27.2u     -0.98229   -0.32343   -0.31918   
 27.3u     -0.99211   -0.32733   -0.32511   
 27.4u     -0.99803   -0.32979   -0.32856   
 27.5u     -1.        -0.33029   -0.33004   
 27.6u     -0.99803   -0.32831   -0.11001   
 27.7u     -0.99211   -0.3224    -0.036671  
 27.8u     -0.98229   -0.31257   -0.0048215 
 27.9u     -0.96858   -0.29887   -578.58u   
 28.u      -0.95106   -0.28134   -69.429u   
 28.1u     -0.92978   -0.14328   -0.11686   
 28.2u     -0.90483   -0.11462   -0.12056   
 28.3u     -0.87631   -0.099658  -0.107     
 28.4u     -0.84433   -0.083238  -0.091445  
 28.5u     -0.80902   -0.065168  -0.074203  
 28.6u     -0.77051   -0.026665  -0.024734  
 28.7u     -0.72897    0.01488   -0.0082448 
 28.8u     -0.68455    0.059302  -0.001084  
 28.9u     -0.63742    0.10642   -130.08u   
 29.u      -0.58779    0.15606   -15.61u    
 29.1u     -0.53583    0.11848    0.089528  
 29.2u     -0.48175    0.13798    0.1241    
 29.3u     -0.42578    0.16608    0.15197   
 29.4u     -0.36812    0.19511    0.1806    
 29.5u     -0.30902    0.22484    0.20998   
 29.6u     -0.24869    0.28517    0.069992  
 29.7u     -0.18738    0.34648    0.023331  
 29.8u     -0.12533    0.40852    0.0030675 
 29.9u     -0.062791   0.47107    368.1u    
 30.u      -58.f       0.53386    44.172u   
 30.1u      0.062791   0.33498    0.26171   
 30.2u      0.12533    0.33785    0.32139   
 30.3u      0.18738    0.36838    0.3529    
 30.4u      0.24869    0.39893    0.38366   
 30.5u      0.30902    0.42897    0.41395   
 30.6u      0.36812    0.48808    0.13798   
 30.7u      0.42578    0.54573    0.045994  
 30.8u      0.48175    0.6017     0.0060473 
 30.9u      0.53583    0.65578    671.93u   
 31.u       0.58779    0.70774    74.659u   
 31.1u      0.63742    0.42554    0.33191   
 31.2u      0.68455    0.40869    0.39589   
 31.3u      0.72897    0.42997    0.41902   
 31.4u      0.77051    0.45037    0.44017   
 31.5u      0.80902    0.46924    0.4598    
 31.6u      0.84433    0.50455    0.15327   
 31.7u      0.87631    0.53653    0.051089  
 31.8u      0.90483    0.56505    0.0067172 
 31.9u      0.92978    0.59       746.36u   
 32.u       0.95106    0.61128    82.929u   
 32.1u      0.96858    0.35206    0.27682   
 32.2u      0.98229    0.32341    0.31918   
 32.3u      0.99211    0.32732    0.3251    
 32.4u      0.99803    0.32978    0.32855   
 32.5u      1.         0.33028    0.33003   
 32.6u      0.99803    0.3283     0.11001   
 32.7u      0.99211    0.32239    0.03667   
 32.8u      0.98229    0.31256    0.0048213 
 32.9u      0.96858    0.29886    535.71u   
 33.u       0.95106    0.28133    59.523u   
 33.1u      0.92978    0.14411    0.116     
 33.2u      0.90483    0.11462    0.12054   
 33.3u      0.87631    0.099648   0.10699   
 33.4u      0.84433    0.083228   0.091435  
 33.5u      0.80902    0.065158   0.074193  
 33.6u      0.77051    0.026655   0.024731  
 33.7u      0.72897   -0.01489    0.0082437 
 33.8u      0.68455   -0.059312   0.0010839 
 33.9u      0.63742   -0.10643    120.43u   
 34.u       0.58779   -0.15607    13.381u   
 34.1u      0.53583   -0.11889   -0.089132  
 34.2u      0.48175   -0.13799   -0.1241    
 34.3u      0.42578   -0.16609   -0.15198   
 34.4u      0.36812   -0.19512   -0.1806    
 34.5u      0.30902   -0.22485   -0.20998   
 34.6u      0.24869   -0.28517   -0.069994  
 34.7u      0.18738   -0.34648   -0.023331  
 34.8u      0.12533   -0.40853   -0.0030676 
 34.9u      0.062791  -0.47107   -340.85u   
 35.u      -3.f       -0.53386   -37.872u   
 35.1u     -0.062791  -0.33647   -0.26022   
 35.2u     -0.12533   -0.33787   -0.32136   
 35.3u     -0.18738   -0.36838   -0.3529    
 35.4u     -0.24869   -0.39893   -0.38366   
 35.5u     -0.30902   -0.42897   -0.41395   
 35.6u     -0.36812   -0.48808   -0.13798   
 35.7u     -0.42578   -0.54573   -0.045994  
 35.8u     -0.48175   -0.6017    -0.0060473 
 35.9u     -0.53583   -0.65578   -671.93u   
 36.u      -0.58779   -0.70774   -74.659u   
 36.1u     -0.63742   -0.42554   -0.33191   
 36.2u     -0.68455   -0.40869   -0.39589   
 36.3u     -0.72897   -0.42997   -0.41902   
 36.4u     -0.77051   -0.45037   -0.44017   
 36.5u     -0.80902   -0.46924   -0.4598    
 36.6u     -0.84433   -0.50455   -0.15327   
 36.7u     -0.87631   -0.53653   -0.051089  
 36.8u     -0.90483   -0.56505   -0.0067172 
 36.9u     -0.92978   -0.59      -746.36u   
 37.u      -0.95106   -0.61128   -82.929u   
 37.1u     -0.96858   -0.35206   -0.27682   
 37.2u     -0.98229   -0.32341   -0.31918   
 37.3u     -0.99211   -0.32732   -0.3251    
 37.4u     -0.99803   -0.32978   -0.32855   
 37.5u     -1.        -0.33028   -0.33003   
 37.6u     -0.99803   -0.3283    -0.11001   
 37.7u     -0.99211   -0.32239   -0.03667   
 37.8u     -0.98229   -0.31256   -0.0048213 
 37.9u     -0.96858   -0.29886   -535.71u   
 38.u      -0.95106   -0.28133   -59.523u   
 38.1u     -0.92978   -0.14411   -0.116     
 38.2u     -0.90483   -0.11462   -0.12054   
 38.3u     -0.87631   -0.099648  -0.10699   
 38.4u     -0.84433   -0.083228  -0.091435  
 38.5u     -0.80902   -0.065158  -0.074193  
 38.6u     -0.77051   -0.026655  -0.024731  
 38.7u     -0.72897    0.01489   -0.0082437 
 38.8u     -0.68455    0.059312  -0.0010839 
 38.9u     -0.63742    0.10643   -120.43u   
 39.u      -0.58779    0.15607   -13.381u   
 39.1u     -0.53583    0.11889    0.089132  
 39.2u     -0.48175    0.13799    0.1241    
 39.3u     -0.42578    0.16609    0.15198   
 39.4u     -0.36812    0.19512    0.1806    
 39.5u     -0.30902    0.22485    0.20998   
 39.6u     -0.24869    0.28517    0.069994  
 39.7u     -0.18738    0.34648    0.023331  
 39.8u     -0.12533    0.40853    0.0030676 
 39.9u     -0.062791   0.47107    340.85u   
 40.u       81.f       0.53386    37.872u   
 40.1u      0.062791   0.33647    0.26022   
 40.2u      0.12533    0.33787    0.32136   
 40.3u      0.18738    0.36838    0.3529    
 40.4u      0.24869    0.39893    0.38366   
 40.5u      0.30902    0.42897    0.41395   
 40.6u      0.36812    0.48808    0.13798   
 40.7u      0.42578    0.54573    0.045994  
 40.8u      0.48175    0.6017     0.0060473 
 40.9u      0.53583    0.65578    671.93u   
 41.u       0.58779    0.70774    74.659u   
 41.1u      0.63742    0.42554    0.33191   
 41.2u      0.68455    0.40869    0.39589   
 41.3u      0.72897    0.42997    0.41902   
 41.4u      0.77051    0.45037    0.44017   
 41.5u      0.80902    0.46924    0.4598    
 41.6u      0.84433    0.50455    0.15327   
 41.7u      0.87631    0.53653    0.051089  
 41.8u      0.90483    0.56505    0.0067172 
 41.9u      0.92978    0.59       746.36u   
 42.u       0.95106    0.61128    82.929u   
 42.1u      0.96858    0.35206    0.27682   
 42.2u      0.98229    0.32341    0.31918   
 42.3u      0.99211    0.32732    0.3251    
 42.4u      0.99803    0.32978    0.32855   
 42.5u      1.         0.33028    0.33003   
 42.6u      0.99803    0.3283     0.11001   
 42.7u      0.99211    0.32239    0.03667   
 42.8u      0.98229    0.31256    0.0048213 
 42.9u      0.96858    0.29886    535.71u   
 43.u       0.95106    0.28133    59.523u   
 43.1u      0.92978    0.14411    0.116     
 43.2u      0.90483    0.11462    0.12054   
 43.3u      0.87631    0.099648   0.10699   
 43.4u      0.84433    0.083228   0.091435  
 43.5u      0.80902    0.065158   0.074193  
 43.6u      0.77051    0.026655   0.024731  
 43.7u      0.72897   -0.01489    0.0082437 
 43.8u      0.68455   -0.059312   0.0010839 
 43.9u      0.63742   -0.10643    120.43u   
 44.u       0.58779   -0.15607    13.381u   
 44.1u      0.53583   -0.11889   -0.089132  
