#Time       v(n1)      v(n2)      v(n3)      v(n4)      v(n5)      i(r1)      method(c1) hidden(0)  dis(n5)    v(r1)      ord(v1)    ord(c1)   
 0.         0.         0.         0.         0.         0.         0.        -1.         0.         0.         0.        -1.        -1.        
 0.1        0.         0.         0.         0.         0.         0.         4.         0.         0.         0.         0.         0.        
 0.2        0.         0.         0.         0.         0.         0.         2.         0.         0.         0.         1.         1.        
 0.3        0.         0.         0.         0.         0.         0.         2.         0.         0.         0.         2.         2.        
 0.4        0.         0.         0.         0.         0.         0.         2.         0.         0.         0.         3.         2.        
 0.5        0.         0.         0.         0.         0.         0.         2.         0.         0.         0.         3.         2.        
 1.         0.         0.         0.         0.         0.         0.         2.         0.         2.         0.         3.         2.        
 1.001      1.         0.99752    0.99505    0.99257    0.9901     9.901u     4.         0.         2.         0.0024752  0.         0.        
 1.         0.013889   0.012435   0.010982   0.0095284  0.0080749  5.814u     4.         0.         2.         0.0014535  0.         0.        
 1.         192.9u     145.59u    98.276u    50.963u    3.6507u    189.25n    4.         0.         0.         47.313u    0.         0.        
 1.         932.66u    710.38u    488.1u     265.82u    43.538u    889.12n    2.         0.         0.         222.28u    1.         1.        
 1.         0.0016724  0.0012877  902.89u    518.12u    133.35u    1.5391u    2.         0.         0.         384.77u    2.         2.        
 1.         0.0030971  0.002431   0.001765   0.0010989  432.78u    2.6643u    2.         0.         0.         666.09u    3.         2.        
 1.         0.0045218  0.0036118  0.0027018  0.0017919  881.87u    3.64u      2.         0.         0.         909.99u    3.         2.        
 1.         0.0068194  0.0055817  0.0043441  0.0031064  0.0018688  4.9507u    2.         0.         0.         0.0012377  3.         2.        
 1.         0.009~     0.007~     0.006~     0.004~     0.0~       5.99~u     2.         0.         0.         0.00149~   3.         2.        
 1.         0.012~     0.01~      0.009~     0.007~     0.005~     7.24~u     2.         0.         0.         0.00181~   3.         2.        
 1.         0.016~     0.01~      0.012~     0.010~     0.008~     8.110~u    2.         0.         0.         0.00202~   3.         2.        
 1.         0.0~       0.02~      0.018~     0.015~     0.013~     9.004~u    2.         0.         0.         0.00225~   3.         2.        
 1.         0.0~       0.02~      0.024~     0.021~     0.019~     ~.4u       2.         0.         0.         0.00236~   3.         2.        
 1.         0.0~       0.03~      0.034~     0.032~     0.030~     9.8463u    2.         0.         0.         0.00246~   3.         2.        
 1.0001     0.050816   0.048327   0.045~     0.043~     0.040861   9.955u     2.         0.         0.         0.00248~   3.         2.        
 1.000~     0.073581   0.071081   0.068~     0.066~     0.063579   10.~n      2.         0.         0.         0.0~n      3.         2.        
 1.000~     0.1094     0.1069     0.1044     0.1019     0.099404   9.9~n      2.         0.         0.         0.~n       3.         2.        
 1.000~     0.18861    0.18611    0.18361    0.18111    0.17861    10.~       2.         0.         0.         0.~n       3.         2.        
 1.00~      0.39574    0.39324    0.39074    0.38824    0.38574    9.9~n      2.         0.         0.         0.~n       3.         2.        
 1.00~      1.         0.9975     0.995      0.9925     0.99       10.~       2.         0.         2.         0.~n       3.         2.        
 1.0~       1.         1.         0.99999    0.99999    0.99998    18.~n      4.         0.         0.         4.~n       0.         0.        
 1.0~       1.         1.         1.         1.         1.        -18.~n      2.         0.         0.        -4.~n       1.         1.        
 1.02~      1.         1.         0.99999    0.99999    0.99998    18.~n      2.         0.         0.         4.~n       2.         2.        
 1.04~      1.         1.         1.         1.         1.        -18.~n      2.         0.         0.        -4.~n       3.         2.        
 1.1371     1.         1.         0.99999    0.99999    0.99998    18.~n      2.         0.         0.         4.~n       3.         2.        
 1.3481     1.         1.         1.         1.         1.        -18.386n    2.         0.         0.        -4.5965u    3.         2.        
 1.8889     1.         1.         0.99999    0.99999    0.99998    18.392n    2.         0.         0.         4.5981u    3.         2.        
 3.5111     1.         1.         1.         1.         1.        -18.384n    2.         0.         0.        -4.596u     3.         2.        
 6.7555     1.         1.         0.99999    0.99999    0.99998    18.392n    2.         0.         0.         4.5979u    3.         2.        
 10.        1.         1.         1.         1.         1.        -18.384n    2.         0.         0.        -4.5959u    3.         2.        
Gnucap   System status
iterations: op=0, dc=0, tran=132, fourier=0, total=169
transient timesteps: accepted=35, rejected=2, total=37
nodes: user=5, subckt=0, model=0, total=5
dctran density=52.0%, ac density=52.0%
