'switch capacitor filter.  Use tr 0 50u .1u.  Gen freq 100k 
#Time       v(1)       v(2)       v(3)       hidden(0)  ord(C1)    ord(C2)    hidden(0)  disc(1)    disc(2)    disc(3)    ev(Y1)     ev(Y2)    
 0.         0.         0.         0.         0.        -1.        -1.         0.         0.         2.         2.         20.E-6     0.        
 100.E-9    0.062791   0.062791   0.         6.         2.         2.         6.         0.         0.         0.         0.         20.E-6    
 200.E-9    0.12533    0.12533    0.         0.         2.         2.         0.         0.         0.         0.         0.         20.E-6    
 300.E-9    0.18738    0.18738    0.         0.         2.         2.         0.         0.         0.         0.         0.         20.E-6    
 400.E-9    0.24869    0.24869    0.         0.         2.         2.         0.         0.         0.         0.         0.         20.E-6    
 500.E-9    0.30902    0.30902    0.         0.         2.         2.         0.         0.         3.         3.         0.         20.E-6    
 600.E-9    0.36812    0.24542    0.12271    0.        -1.        -1.         0.         0.         0.         0.         20.E-6     0.        
 700.E-9    0.42578    0.20205    0.22373    0.         0.         0.         0.         0.         0.         0.         20.E-6     0.        
 800.E-9    0.48175    0.24753    0.23423    8.         2.         2.         8.         0.         0.         0.         20.E-6     0.        
 900.E-9    0.53583    0.27461    0.26122    2.         2.         2.         2.         0.         0.         0.         20.E-6     0.        
 1.E-6      0.58779    0.30032    0.28747    1.         2.         2.         1.         0.         3.         3.         20.E-6     0.        
 1.1E-6     0.63742    0.33711    0.15016    0.        -1.        -1.         0.         0.         0.         0.         0.         20.E-6    
 1.2E-6     0.68455    0.38423   -3.754E-9   0.         0.         0.         0.         0.         0.         0.         0.         20.E-6    
 1.3E-6     0.72897    0.42865   -424.1E-12  6.         2.         2.         6.         0.         0.         0.         0.         20.E-6    
 1.4E-6     0.77051    0.47019    0.         0.         2.         2.         0.         0.         0.         0.         0.         20.E-6    
 1.5E-6     0.80902    0.5087     0.         0.         2.         2.         0.         0.         3.         3.         0.         20.E-6    
 1.6E-6     0.84433    0.36267    0.18134    0.        -1.        -1.         0.         0.         0.         0.         20.E-6     0.        
 1.7E-6     0.87631    0.2631     0.31289    0.         0.         0.         0.         0.         0.         0.         20.E-6     0.        
 1.8E-6     0.90483    0.30527    0.29924    7.         2.         2.         7.         0.         0.         0.         20.E-6     0.        
 1.9E-6     0.92978    0.31773    0.31173    3.         2.         2.         3.         0.         0.         0.         20.E-6     0.        
 2.E-6      0.95106    0.32791    0.32282    1.         2.         2.         1.         0.         3.         3.         20.E-6     0.        
 2.1E-6     0.96858    0.34035    0.16396    0.        -1.        -1.         0.         0.         0.         0.         0.         20.E-6    
 2.2E-6     0.98229    0.35406   -4.0989E-9  0.         0.         0.         0.         0.         0.         0.         0.         20.E-6    
 2.3E-6     0.99211    0.36388   -462.9E-12  6.         2.         2.         6.         0.         0.         0.         0.         20.E-6    
 2.4E-6     0.99803    0.3698     0.         0.         2.         2.         0.         0.         0.         0.         0.         20.E-6    
 2.5E-6     1.         0.37177    0.         0.         2.         2.         0.         0.         3.         3.         0.         20.E-6    
 2.6E-6     0.99803    0.24653    0.12326    0.        -1.        -1.         0.         0.         0.         0.         20.E-6     0.        
 2.7E-6     0.99211    0.16041    0.20347    0.         0.         0.         0.         0.         0.         0.         20.E-6     0.        
 2.8E-6     0.98229    0.17536    0.17869    7.         2.         2.         7.         0.         0.         0.         20.E-6     0.        
 2.9E-6     0.96858    0.16834    0.17201    3.         2.         2.         3.         0.         0.         0.         20.E-6     0.        
 3.E-6      0.95106    0.1591     0.16372    1.         2.         2.         1.         0.         3.         3.         20.E-6     0.        
 3.1E-6     0.92978    0.14244    0.079551   0.        -1.        -1.         0.         0.         0.         0.         0.         20.E-6    
 3.2E-6     0.90483    0.11749   -1.9888E-9  0.         0.         0.         0.         0.         0.         0.         0.         20.E-6    
 3.3E-6     0.87631    0.088972  -225.3E-12  6.         2.         2.         6.         0.         0.         0.         0.         20.E-6    
 3.4E-6     0.84433    0.056993   0.         0.         2.         2.         0.         0.         0.         0.         0.         20.E-6    
 3.5E-6     0.80902    0.021682   0.         0.         2.         2.         0.         0.         3.         3.         0.         20.E-6    
 3.6E-6     0.77051   -0.011214  -0.0056072  0.        -1.        -1.         0.         0.         0.         0.         20.E-6     0.        
 3.7E-6     0.72897   -0.035173  -0.023194   0.         0.         0.         0.         0.         0.         0.         20.E-6     0.        
 3.8E-6     0.68455   -0.057038  -0.04575    4.         2.         2.         4.         0.         0.         0.         20.E-6     0.        
 3.9E-6     0.63742   -0.080928  -0.068983   1.         2.         2.         1.         0.         0.         0.         20.E-6     0.        
 4.E-6      0.58779   -0.10606   -0.093492   0.         2.         2.         0.         0.         3.         3.         20.E-6     0.        
 4.1E-6     0.53583   -0.14545   -0.053029   0.        -1.        -1.         0.         0.         0.         0.         0.         20.E-6    
 4.2E-6     0.48175   -0.19952    1.3257E-9  0.         0.         0.         0.         0.         0.         0.         0.         20.E-6    
 4.3E-6     0.42578   -0.2555     21.49E-12  5.         2.         2.         5.         0.         0.         0.         0.         20.E-6    
 4.4E-6     0.36812   -0.31315    0.         0.         2.         2.         0.         0.         0.         0.         0.         20.E-6    
 4.5E-6     0.30902   -0.37226    0.         0.         2.         2.         0.         0.         3.         3.         0.         20.E-6    
 4.6E-6     0.24869   -0.28839   -0.1442     0.        -1.        -1.         0.         0.         0.         0.         20.E-6     0.        
 4.7E-6     0.18738   -0.23313   -0.26076    0.         0.         0.         0.         0.         0.         0.         20.E-6     0.        
 4.8E-6     0.12533   -0.2854    -0.27054    8.         2.         2.         8.         0.         0.         0.         20.E-6     0.        
 4.9E-6     0.062791  -0.31707   -0.30142    2.         2.         2.         2.         0.         0.         0.         20.E-6     0.        
 5.E-6      3.144E-12 -0.34849   -0.33279    1.         2.         2.         1.         0.         3.         3.         20.E-6     0.        
 5.1E-6    -0.062791  -0.39558   -0.17425    0.        -1.        -1.         0.         0.         0.         0.         0.         20.E-6    
 5.2E-6    -0.12533   -0.45812    4.3561E-9  0.         0.         0.         0.         0.         0.         0.         0.         20.E-6    
 5.3E-6    -0.18738   -0.52017    51.84E-12  5.         2.         2.         5.         0.         0.         0.         0.         20.E-6    
 5.4E-6    -0.24869   -0.58148    0.         0.         2.         2.         0.         0.         0.         0.         0.         20.E-6    
 5.5E-6    -0.30902   -0.6418     0.         0.         2.         2.         0.         0.         3.         3.         0.         20.E-6    
 5.6E-6    -0.36812   -0.46727   -0.23364    0.        -1.        -1.         0.         0.         0.         0.         20.E-6     0.        
 5.7E-6    -0.42578   -0.34995   -0.40861    0.         0.         0.         0.         0.         0.         0.         20.E-6     0.        
 5.8E-6    -0.48175   -0.41362   -0.40092    8.         2.         2.         8.         0.         0.         0.         20.E-6     0.        
 5.9E-6    -0.53583   -0.441     -0.42761    2.         2.         2.         2.         0.         0.         0.         20.E-6     0.        
 6.E-6     -0.58779   -0.46671   -0.45386    1.         2.         2.         1.         0.         3.         3.         20.E-6     0.        
 6.1E-6    -0.63742   -0.5035    -0.23336    0.        -1.        -1.         0.         0.         0.         0.         0.         20.E-6    
 6.2E-6    -0.68455   -0.55062    5.8339E-9  0.         0.         0.         0.         0.         0.         0.         0.         20.E-6    
 6.3E-6    -0.72897   -0.59504    598.3E-12  6.         2.         2.         6.         0.         0.         0.         0.         20.E-6    
 6.4E-6    -0.77051   -0.63659    0.         0.         2.         2.         0.         0.         0.         0.         0.         20.E-6    
 6.5E-6    -0.80902   -0.67509    0.         0.         2.         2.         0.         0.         3.         3.         0.         20.E-6    
 6.6E-6    -0.84433   -0.4736    -0.2368     0.        -1.        -1.         0.         0.         0.         0.         20.E-6     0.        
 6.7E-6    -0.87631   -0.33705   -0.40533    0.         0.         0.         0.         0.         0.         0.         20.E-6     0.        
 6.8E-6    -0.90483   -0.38833   -0.38257    7.         2.         2.         7.         0.         0.         0.         20.E-6     0.        
 6.9E-6    -0.92978   -0.40092   -0.39493    3.         2.         2.         3.         0.         0.         0.         20.E-6     0.        
 7.E-6     -0.95106   -0.41111   -0.40602    1.         2.         2.         1.         0.         3.         3.         20.E-6     0.        
 7.1E-6    -0.96858   -0.42355   -0.20555    0.        -1.        -1.         0.         0.         0.         0.         0.         20.E-6    
 7.2E-6    -0.98229   -0.43725    5.1388E-9  0.         0.         0.         0.         0.         0.         0.         0.         20.E-6    
 7.3E-6    -0.99211   -0.44708    579.8E-12  6.         2.         2.         6.         0.         0.         0.         0.         20.E-6    
 7.4E-6    -0.99803   -0.45299    0.         0.         2.         2.         0.         0.         0.         0.         0.         20.E-6    
 7.5E-6    -1.        -0.45496    0.         0.         2.         2.         0.         0.         3.         3.         0.         20.E-6    
 7.6E-6    -0.99803   -0.30199   -0.151      0.        -1.        -1.         0.         0.         0.         0.         20.E-6     0.        
 7.7E-6    -0.99211   -0.19739   -0.24969    0.         0.         0.         0.         0.         0.         0.         20.E-6     0.        
 7.8E-6    -0.98229   -0.21689   -0.22036    7.         2.         2.         7.         0.         0.         0.         20.E-6     0.        
 7.9E-6    -0.96858   -0.20994   -0.21361    3.         2.         2.         3.         0.         0.         0.         20.E-6     0.        
 8.E-6     -0.95106   -0.2007    -0.20532    1.         2.         2.         1.         0.         3.         3.         20.E-6     0.        
 8.1E-6    -0.92978   -0.18404   -0.10035    0.        -1.        -1.         0.         0.         0.         0.         0.         20.E-6    
 8.2E-6    -0.90483   -0.15909    2.5088E-9  0.         0.         0.         0.         0.         0.         0.         0.         20.E-6    
 8.3E-6    -0.87631   -0.13057    283.9E-12  6.         2.         2.         6.         0.         0.         0.         0.         20.E-6    
 8.4E-6    -0.84433   -0.098591   0.         0.         2.         2.         0.         0.         0.         0.         0.         20.E-6    
 8.5E-6    -0.80902   -0.06328    0.         0.         2.         2.         0.         0.         3.         3.         0.         20.E-6    
 8.6E-6    -0.77051   -0.016518  -0.0082588  0.        -1.        -1.         0.         0.         0.         0.         20.E-6     0.        
 8.7E-6    -0.72897    0.016685   83.561E-6  0.         0.         0.         0.         0.         0.         0.         20.E-6     0.        
 8.8E-6    -0.68455    0.036279   0.024911   6.         2.         2.         6.         0.         0.         0.         20.E-6     0.        
 8.9E-6    -0.63742    0.060128   0.048184   1.         2.         2.         1.         0.         0.         0.         20.E-6     0.        
 9.E-6     -0.58779    0.085256   0.072695   1.         2.         2.         1.         0.         3.         3.         20.E-6     0.        
 9.1E-6    -0.53583    0.12465    0.042628   0.        -1.        -1.         0.         0.         0.         0.         0.         20.E-6    
 9.2E-6    -0.48175    0.17873   -1.0657E-9  0.         0.         0.         0.         0.         0.         0.         0.         20.E-6    
 9.3E-6    -0.42578    0.2347    -18.28E-12  5.         2.         2.         5.         0.         0.         0.         0.         20.E-6    
 9.4E-6    -0.36812    0.29236    0.         0.         2.         2.         0.         0.         0.         0.         0.         20.E-6    
 9.5E-6    -0.30902    0.35146    0.         0.         2.         2.         0.         0.         3.         3.         0.         20.E-6    
 9.6E-6    -0.24869    0.27453    0.13726    0.        -1.        -1.         0.         0.         0.         0.         20.E-6     0.        
 9.7E-6    -0.18738    0.22389    0.24921    0.         0.         0.         0.         0.         0.         0.         20.E-6     0.        
 9.8E-6    -0.12533    0.27502    0.26013    8.         2.         2.         8.         0.         0.         0.         20.E-6     0.        
 9.9E-6    -0.062791   0.30667    0.29102    2.         2.         2.         2.         0.         0.         0.         20.E-6     0.        
 10.E-6    -3.135E-12  0.33809    0.32239    1.         2.         2.         1.         0.         3.         3.         20.E-6     0.        
 10.1E-6    0.062791   0.38518    0.16905    0.        -1.        -1.         0.         0.         0.         0.         0.         20.E-6    
 10.2E-6    0.12533    0.44772   -4.2262E-9  0.         0.         0.         0.         0.         0.         0.         0.         20.E-6    
 10.3E-6    0.18738    0.50977   -477.1E-12  6.         2.         2.         6.         0.         0.         0.         0.         20.E-6    
 10.4E-6    0.24869    0.57108    0.         0.         2.         2.         0.         0.         0.         0.         0.         20.E-6    
 10.5E-6    0.30902    0.6314     0.         0.         2.         2.         0.         0.         3.         3.         0.         20.E-6    
 10.6E-6    0.36812    0.46034    0.23017    0.        -1.        -1.         0.         0.         0.         0.         20.E-6     0.        
 10.7E-6    0.42578    0.34533    0.40284    0.         0.         0.         0.         0.         0.         0.         20.E-6     0.        
 10.8E-6    0.48175    0.40843    0.39571    8.         2.         2.         8.         0.         0.         0.         20.E-6     0.        
 10.9E-6    0.53583    0.4358     0.42241    2.         2.         2.         2.         0.         0.         0.         20.E-6     0.        
 11.E-6     0.58779    0.46151    0.44866    1.         2.         2.         1.         0.         3.         3.         20.E-6     0.        
 11.1E-6    0.63742    0.4983     0.23076    0.        -1.        -1.         0.         0.         0.         0.         0.         20.E-6    
 11.2E-6    0.68455    0.54542   -5.7689E-9  0.         0.         0.         0.         0.         0.         0.         0.         20.E-6    
 11.3E-6    0.72897    0.58984   -650.5E-12  6.         2.         2.         6.         0.         0.         0.         0.         20.E-6    
 11.4E-6    0.77051    0.63139    0.         0.         2.         2.         0.         0.         0.         0.         0.         20.E-6    
 11.5E-6    0.80902    0.66989    0.         0.         2.         2.         0.         0.         3.         3.         0.         20.E-6    
 11.6E-6    0.84433    0.47014    0.23507    0.        -1.        -1.         0.         0.         0.         0.         20.E-6     0.        
 11.7E-6    0.87631    0.33474    0.40244    0.         0.         0.         0.         0.         0.         0.         20.E-6     0.        
 11.8E-6    0.90483    0.38573    0.37997    7.         2.         2.         7.         0.         0.         0.         20.E-6     0.        
 11.9E-6    0.92978    0.39832    0.39233    3.         2.         2.         3.         0.         0.         0.         20.E-6     0.        
 12.E-6     0.95106    0.40851    0.40342    1.         2.         2.         1.         0.         3.         3.         20.E-6     0.        
 12.1E-6    0.96858    0.42095    0.20425    0.        -1.        -1.         0.         0.         0.         0.         0.         20.E-6    
 12.2E-6    0.98229    0.43465   -5.1063E-9  0.         0.         0.         0.         0.         0.         0.         0.         20.E-6    
 12.3E-6    0.99211    0.44448   -576.1E-12  6.         2.         2.         6.         0.         0.         0.         0.         20.E-6    
 12.4E-6    0.99803    0.45039    0.         0.         2.         2.         0.         0.         0.         0.         0.         20.E-6    
 12.5E-6    1.         0.45236    0.         0.         2.         2.         0.         0.         3.         3.         0.         20.E-6    
 12.6E-6    0.99803    0.30026    0.15013    0.        -1.        -1.         0.         0.         0.         0.         20.E-6     0.        
 12.7E-6    0.99211    0.19623    0.24825    0.         0.         0.         0.         0.         0.         0.         20.E-6     0.        
 12.8E-6    0.98229    0.21559    0.21906    7.         2.         2.         7.         0.         0.         0.         20.E-6     0.        
 12.9E-6    0.96858    0.20864    0.21231    3.         2.         2.         3.         0.         0.         0.         20.E-6     0.        
 13.E-6     0.95106    0.1994     0.20402    1.         2.         2.         1.         0.         3.         3.         20.E-6     0.        
 13.1E-6    0.92978    0.18274    0.099701   0.        -1.        -1.         0.         0.         0.         0.         0.         20.E-6    
 13.2E-6    0.90483    0.15779   -2.4925E-9  0.         0.         0.         0.         0.         0.         0.         0.         20.E-6    
 13.3E-6    0.87631    0.12927   -282.E-12   6.         2.         2.         6.         0.         0.         0.         0.         20.E-6    
 13.4E-6    0.84433    0.097291   0.         0.         2.         2.         0.         0.         0.         0.         0.         20.E-6    
 13.5E-6    0.80902    0.06198    0.         0.         2.         2.         0.         0.         3.         3.         0.         20.E-6    
 13.6E-6    0.77051    0.015651   0.0078255  0.        -1.        -1.         0.         0.         0.         0.         20.E-6     0.        
