#Time       v(nin)     control(0) hidden(0)  next(V1)   event(V1) 
 0.         0.         1.         0.         0.         0.1       
 500.u      1.         9.         0.         0.         0.1       
 0.05       1.         1.         0.         0.0995     0.1       
 0.0995     1.         6.         0.         0.149      0.1       
 0.1        1.         1.         0.         0.1005     0.5       
 0.1005     0.         6.         0.         0.         0.5       
 0.15       0.         1.         0.         0.         0.5       
 0.2        0.         1.         0.         0.         0.5       
 0.25       0.         1.         0.         0.         0.5       
 0.3        0.         1.         0.         0.         0.5       
 0.35       0.         1.         0.         0.         0.5       
 0.4        0.         1.         0.         0.         0.5       
 0.45       0.         1.         0.         0.         0.5       
 0.5        0.         1.         0.         0.         0.6       
 0.55       1.         1.         0.         0.         0.6       
 0.6        1.         1.         0.         0.         1.        
 0.65       0.         1.         0.         0.         1.        
 0.7        0.         1.         0.         0.         1.        
 0.75       0.         1.         0.         0.         1.        
 0.8        0.         1.         0.         0.         1.        
 0.85       0.         1.         0.         0.         1.        
 0.9        0.         1.         0.         0.         1.        
 0.95       0.         1.         0.         0.         1.        
 1.         0.         1.         0.         0.         1.1       
