#Time       v(nin)     control(0) hidden(0)  next(V1)   event(V1)  order(V1) 
 0.         0.         1.         0.         0.         0.2       -1.        
 500.u      1.         9.         0.         0.         0.2        0.        
 0.05       1.         1.         0.         0.0995     0.2        1.        
 0.0995     1.         6.         0.         0.149      0.2        2.        
 0.1        1.         1.         0.         0.1005     0.2        3.        
 0.1005     1.         6.         0.         0.         0.2        3.        
 0.15       1.         1.         0.         0.         0.2        3.        
 0.2        1.         1.         0.         0.         0.5        3.        
 0.25       0.         1.         0.         0.         0.5       -1.        
 0.3        0.         1.         0.         0.         0.5        0.        
 0.35       0.         1.         0.         0.         0.5        1.        
 0.4        0.         1.         0.         0.         0.5        2.        
 0.45       0.         1.         0.         0.         0.5        3.        
 0.5        0.         1.         0.         0.         0.7        3.        
 0.55       1.         1.         0.         0.         0.7       -1.        
 0.6        1.         1.         0.         0.         0.7        0.        
 0.65       1.         1.         0.         0.         0.7        1.        
 0.7        1.         1.         0.         0.         1.         2.        
 0.75       0.         1.         0.         0.         1.        -1.        
 0.8        0.         1.         0.         0.         1.         0.        
 0.85       0.         1.         0.         0.         1.         1.        
 0.9        0.         1.         0.         0.         1.         2.        
 0.95       0.         1.         0.         0.         1.         3.        
 1.         0.         1.         0.         0.         1.2        3.        
