# plain POLY 
v1 ( 1 0 )  DC  1.  AC  1.
g8 ( 8 0 1 0 )  poly( 0.  0.  10.  0. )
r8 ( 8 0 )  10.K
#           v(1)       v(8)      
 27.        1.        -100.K     
#           v(1)       v(8)      
-10.       -10.       -10.Meg    
-9.        -9.        -8.1Meg    
-8.        -8.        -6.4Meg    
-7.        -7.        -4.9Meg    
-6.        -6.        -3.6Meg    
-5.        -5.        -2.5Meg    
-4.        -4.        -1.6Meg    
-3.        -3.        -900.K     
-2.        -2.        -400.K     
-1.        -1.        -100.K     
 0.         0.         0.        
 1.         1.        -100.K     
 2.         2.        -400.K     
 3.         3.        -900.K     
 4.         4.        -1.6Meg    
 5.         5.        -2.5Meg    
 6.         6.        -3.6Meg    
 7.         7.        -4.9Meg    
 8.         8.        -6.4Meg    
 9.         9.        -8.1Meg    
 10.        10.       -10.Meg    
#           v(1)       v(8)      
 1.         1.        -100.K     
 1.5849     1.5849    -251.19K   
 2.5119     2.5119    -630.96K   
 3.9811     3.9811    -1.5849Meg 
 6.3096     6.3096    -3.9811Meg 
 10.        10.       -10.Meg    
 15.849     15.849    -25.119Meg 
 25.119     25.119    -63.096Meg 
 39.811     39.811    -158.49Meg 
 63.096     63.096    -398.11Meg 
 100.       100.      -1.G       
#           v(1)       v(8)      
 32.        32.       -102.4Meg  
 41.        41.       -168.1Meg  
 50.        50.       -250.Meg   
 59.        59.       -348.1Meg  
 68.        68.       -462.4Meg  
