'switch capacitor filter.  Use tr 0 50u .1u.  Gen freq 100k 
#Time       v(1)       v(2)       v(3)       stepcause(0)
 0.         0.         0.         0.         ??        
 1.n        628.32u    616.24u    12.083u    ??        
 2.n        0.0012566  0.0012265  30.089u    ??        
 3.n        0.001885   0.0018252  59.709u    ??        
 4.n        0.0025133  0.0024128  100.49u    ??        
 5.n        0.0031416  0.0029896  151.99u    ??        
 20.833n    0.01309    0.011059   0.0020307  ??        
 47.222n    0.029666   0.021653   0.0080128  ??        
 73.611n    0.046235   0.030648   0.015587   ??        
 100.n      0.062791   0.039141   0.023649   ??        
 133.33n    0.083678   0.049654   0.034024   ??        
 166.67n    0.10453    0.060082   0.044446   ??        
 200.n      0.12533    0.070472   0.054862   ??        
 300.n      0.18738    0.10143    0.085951   ??        
 400.n      0.24869    0.13198    0.11671    ??        
 500.n      0.30902    0.16202    0.147      ??        
 600.n      0.36812    0.22112    0.049      ??        
 600.1n     0.36818    0.22118    0.048905   ??        
 600.16n    0.36822    0.22122    0.048839   ??        
 601.13n    0.36879    0.22179    0.047901   ??        
 604.8n     0.37092    0.22392    0.044517   ??        
 628.6n     0.38477    0.23777    0.0274     ??        
 664.3n     0.40538    0.25838    0.012983   ??        
 700.n      0.42578    0.27878    0.0061515  ??        
 735.7n     0.44597    0.29897    0.0029147  ??        
 771.4n     0.46593    0.31893    0.0013811  ??        
 800.n      0.48175    0.33475    766.83u    ??        
 828.6n     0.49742    0.35042    425.78u    ??        
 864.3n     0.51675    0.36975    201.74u    ??        
 900.n      0.53583    0.38883    95.591u    ??        
 935.7n     0.55463    0.40763    45.293u    ??        
 971.4n     0.57315    0.42615    21.461u    ??        
 1.u        0.58779    0.44079    11.916u    ??        
 1.0286u    0.60223    0.33378    0.12145    ??        
 1.1u       0.63742    0.27731    0.21312    ??        
 1.11u      0.64225    0.27104    0.22422    ??        
 1.12u      0.64706    0.26764    0.23243    ??        
 1.136u     0.65469    0.26581    0.24189    ??        
 1.1573u    0.66476    0.26722    0.25055    ??        
 1.1787u    0.67471    0.2707     0.25702    ??        
 1.2u       0.68455    0.27497    0.26259    ??        
 1.2333u    0.69966    0.28211    0.27056    ??        
 1.2667u    0.71447    0.28934    0.27814    ??        
 1.3u       0.72897    0.29646    0.28552    ??        
 1.35u      0.75011    0.30685    0.29628    ??        
 1.4u       0.77051    0.31686    0.30666    ??        
 1.5u       0.80902    0.33573    0.3263     ??        
 1.6u       0.84433    0.37104    0.10877    ??        
 1.7u       0.87631    0.40302    0.036255   ??        
 1.7167u    0.8813     0.40802    0.025897   ??        
 1.7333u    0.8862     0.41292    0.018498   ??        
 1.7556u    0.89259    0.4193     0.011771   ??        
 1.7778u    0.89879    0.42551    0.0074907  ??        
 1.8u       0.90483    0.43154    0.0047668  ??        
 1.85u      0.91775    0.44447    0.0015889  ??        
 1.9u       0.92978    0.45649    529.65u    ??        
 1.95u      0.94088    0.46759    176.55u    ??        
 2.u        0.95106    0.47777    58.85u     ??        
 2.0333u    0.95732    0.34576    0.13834    ??        
 2.1u       0.96858    0.2775     0.21786    ??        
 2.1091u    0.96999    0.26962    0.22714    ??        
 2.1221u    0.97194    0.26261    0.2361     ??        
 2.1351u    0.97383    0.25884    0.24176    ??        
 2.1567u    0.97683    0.25623    0.24737    ??        
 2.1784u    0.97965    0.25595    0.25047    ??        
 2.2u       0.98229    0.25653    0.25253    ??        
 2.2216u    0.98474    0.25741    0.25411    ??        
 2.2433u    0.98702    0.25834    0.25545    ??        
 2.2716u    0.98972    0.25951    0.25699    ??        
 2.3u       0.99211    0.26056    0.25833    ??        
 2.35u      0.99556    0.26203    0.26031    ??        
 2.4u       0.99803    0.26302    0.26178    ??        
 2.45u      0.99951    0.26351    0.26277    ??        
 2.5u       1.         0.26351    0.26326    ??        
 2.6u       0.99803    0.26154    0.087754   ??        
 2.7u       0.99211    0.25562    0.029251   ??        
 2.7167u    0.99075    0.25426    0.020894   ??        
 2.7333u    0.98927    0.25278    0.014924   ??        
 2.7556u    0.98714    0.25065    0.0094972  ??        
 2.7778u    0.98481    0.24832    0.0060437  ??        
 2.8u       0.98229    0.2458     0.003846   ??        
 2.85u      0.97592    0.23943    0.001282   ??        
 2.9u       0.96858    0.23209    427.33u    ??        
 2.95u      0.96029    0.2238     142.44u    ??        
 3.u        0.95106    0.21457    47.481u    ??        
 3.0333u    0.94438    0.1485     0.05943    ??        
 3.1u       0.92978    0.10682    0.086511   ??        
 3.1083u    0.92784    0.10212    0.089274   ??        
 3.1198u    0.92513    0.097267   0.091416   ??        
 3.1312u    0.92237    0.093676   0.09225    ??        
 3.1484u    0.91814    0.089626   0.092075   ??        
 3.1656u    0.91381    0.086474   0.090894   ??        
 3.1828u    0.90937    0.083734   0.089196   ??        
 3.2u       0.90483    0.081167   0.087217   ??        
 3.2333u    0.89571    0.076295   0.082974   ??        
 3.2667u    0.8862     0.07136    0.078401   ??        
 3.3u       0.87631    0.066259   0.073605   ??        
 3.35u      0.86074    0.058258   0.066041   ??        
 3.4u       0.84433    0.049839   0.058046   ??        
 3.5u       0.80902    0.03177    0.040804   ??        
 3.6u       0.77051   -0.0067341  0.013601   ??        
 3.7u       0.72897   -0.048279   0.0045338  ??        
 3.7167u    0.72176   -0.055487   0.0032384  ??        
 3.7333u    0.71447   -0.062775   0.0023132  ??        
 3.7556u    0.70463   -0.072613   0.001472   ??        
 3.7778u    0.69466   -0.082589   936.74u    ??        
 3.8u       0.68455   -0.0927     596.11u    ??        
 3.85u      0.66131   -0.11594    198.7u     ??        
 3.9u       0.63742   -0.13982    66.234u    ??        
 3.95u      0.61291   -0.16434    22.078u    ??        
 4.u        0.58779   -0.18946    7.3593u    ??        
 4.0333u    0.57071   -0.14752   -0.059004   ??        
 4.1u       0.53583   -0.13753   -0.10388    ??        
 4.1111u    0.52992   -0.13679   -0.11053    ??        
 4.1222u    0.52399   -0.13741   -0.11585    ??        
 4.1378u    0.51564   -0.13965   -0.12195    ??        
 4.1585u    0.50443   -0.14403   -0.12879    ??        
 4.1793u    0.49313   -0.1492    -0.13491    ??        
 4.2u       0.48175   -0.15472   -0.14077    ??        
 4.2333u    0.4633    -0.1639    -0.15004    ??        
 4.2667u    0.44464   -0.17329   -0.15932    ??        
 4.3u       0.42578   -0.18278   -0.16868    ??        
 4.35u      0.39715   -0.1972    -0.18289    ??        
 4.4u       0.36812   -0.21181   -0.1973     ??        
 4.5u       0.30902   -0.24154   -0.22668    ??        
 4.6u       0.24869   -0.30187   -0.07556    ??        
 4.7u       0.18738   -0.36318   -0.025187   ??        
 4.7167u    0.17708   -0.37348   -0.01799    ??        
 4.7333u    0.16677   -0.38379   -0.01285    ??        
 4.7556u    0.15299   -0.39758   -0.0081774  ??        
 4.7778u    0.13917   -0.41139   -0.0052038  ??        
 4.8u       0.12533   -0.42523   -0.0033115  ??        
 4.85u      0.094108  -0.45645   -0.0011038  ??        
 4.9u       0.062791  -0.48777   -367.95u    ??        
 4.95u      0.031411  -0.51915   -122.65u    ??        
 5.u        4.f       -0.55056   -40.883u    ??        
 5.0333u   -0.020942  -0.40823   -0.16332    ??        
 5.1u      -0.062791  -0.3458    -0.26759    ??        
 5.1095u   -0.068762  -0.33878   -0.28058    ??        
 5.1224u   -0.076861  -0.33409   -0.29337    ??        
 5.1354u   -0.084956  -0.33299   -0.30257    ??        
 5.1569u   -0.098434  -0.33528   -0.31376    ??        
 5.1785u   -0.11189   -0.34023   -0.32226    ??        
 5.2u      -0.12533   -0.34624   -0.3297     ??        
 5.2333u   -0.14608   -0.35622   -0.34046    ??        
 5.2667u   -0.16677   -0.36647   -0.3509     ??        
 5.3u      -0.18738   -0.37673   -0.36125    ??        
 5.35u     -0.21814   -0.39206   -0.37668    ??        
 5.4u      -0.24869   -0.40728   -0.39201    ??        
 5.5u      -0.30902   -0.43732   -0.4223     ??        
 5.6u      -0.36812   -0.49643   -0.14077    ??        
 5.7u      -0.42578   -0.55408   -0.046922   ??        
 5.7167u   -0.43523   -0.56353   -0.033516   ??        
 5.7333u   -0.44464   -0.57294   -0.02394    ??        
 5.7556u   -0.4571    -0.5854    -0.015234   ??        
 5.7778u   -0.46947   -0.59777   -0.0096947  ??        
 5.8u      -0.48175   -0.61005   -0.0061693  ??        
 5.85u     -0.50904   -0.63734   -0.0020564  ??        
 5.9u      -0.53583   -0.66413   -685.48u    ??        
 5.95u     -0.56208   -0.69038   -228.49u    ??        
 6.u       -0.58779   -0.71609   -76.165u    ??        
 6.0333u   -0.6046    -0.52352   -0.20945    ??        
 6.1u      -0.63742   -0.4302    -0.3356     ??        
 6.1095u   -0.64202   -0.4193    -0.3511     ??        
 6.119u    -0.6466    -0.4126    -0.36238    ??        
 6.1325u   -0.65304   -0.40768   -0.37374    ??        
 6.155u    -0.66368   -0.40614   -0.38592    ??        
 6.1775u   -0.67418   -0.40874   -0.39382    ??        
 6.2u      -0.68455   -0.41287   -0.40005    ??        
 6.2225u   -0.69478   -0.41754   -0.40562    ??        
 6.2483u   -0.70636   -0.42309   -0.41165    ??        
 6.2742u   -0.71776   -0.42865   -0.41749    ??        
 6.3u      -0.72897   -0.43415   -0.4232     ??        
 6.35u     -0.75011   -0.44453   -0.43396    ??        
 6.4u      -0.77051   -0.45455   -0.44434    ??        
 6.5u      -0.80902   -0.47341   -0.46398    ??        
 6.6u      -0.84433   -0.50872   -0.15466    ??        
 6.7u      -0.87631   -0.5407    -0.051553   ??        
 6.7167u   -0.8813    -0.5457    -0.036824   ??        
 6.7333u   -0.8862    -0.5506    -0.026303   ??        
 6.7556u   -0.89259   -0.55698   -0.016738   ??        
 6.7778u   -0.89879   -0.56319   -0.010652   ??        
 6.8u      -0.90483   -0.56922   -0.0067782  ??        
 6.85u     -0.91775   -0.58215   -0.0022594  ??        
 6.9u      -0.92978   -0.59417   -753.14u    ??        
 6.95u     -0.94088   -0.60528   -251.05u    ??        
 7.u       -0.95106   -0.61545   -83.682u    ??        
 7.0333u   -0.95732   -0.44411   -0.17769    ??        
 7.1u      -0.96858   -0.3544    -0.27867    ??        
 7.1083u   -0.96987   -0.34478   -0.28958    ??        
 7.1214u   -0.97184   -0.33509   -0.30124    ??        
 7.1345u   -0.97375   -0.32977   -0.30846    ??        
 7.1563u   -0.97678   -0.32586   -0.3154     ??        
 7.1782u   -0.97963   -0.3251    -0.31901    ??        
 7.2u      -0.98229   -0.3255    -0.32126    ??        
 7.2218u   -0.98476   -0.32632   -0.32293    ??        
 7.2437u   -0.98706   -0.32723   -0.32431    ??        
 7.2655u   -0.98916   -0.32813   -0.32551    ??        
 7.3u      -0.99211   -0.32941   -0.32719    ??        
 7.3345u   -0.9946    -0.33048   -0.3286     ??        
 7.3673u   -0.99652   -0.33128   -0.32972    ??        
 7.4u      -0.99803   -0.33187   -0.33064    ??        
 7.5u      -1.        -0.33236   -0.33212    ??        
 7.6u      -0.99803   -0.33039   -0.11071    ??        
 7.7u      -0.99211   -0.32448   -0.036902   ??        
 7.7167u   -0.99075   -0.32311   -0.026358   ??        
 7.7333u   -0.98927   -0.32164   -0.018827   ??        
 7.7556u   -0.98714   -0.3195    -0.011981   ??        
 7.7778u   -0.98481   -0.31717   -0.0076243  ??        
 7.8u      -0.98229   -0.31465   -0.0048519  ??        
 7.85u     -0.97592   -0.30828   -0.0016173  ??        
 7.9u      -0.96858   -0.30095   -539.1u     ??        
 7.95u     -0.96029   -0.29266   -179.7u     ??        
 8.u       -0.95106   -0.28342   -59.899u    ??        
 8.0333u   -0.94438   -0.19769   -0.079111   ??        
 8.1u      -0.92978   -0.14528   -0.11692    ??        
 8.1083u   -0.92784   -0.13943   -0.12083    ??        
 8.1198u   -0.92513   -0.1335    -0.12405    ??        
 8.1312u   -0.92237   -0.12924   -0.12555    ??        
 8.1484u   -0.91814   -0.12461   -0.12596    ??        
 8.1656u   -0.91381   -0.12118   -0.12506    ??        
 8.1828u   -0.90937   -0.1183    -0.1235     ??        
 8.2u      -0.90483   -0.11566   -0.12159    ??        
 8.225u    -0.89803   -0.11197   -0.11848    ??        
 8.2625u   -0.88741   -0.10642   -0.11342    ??        
 8.3u      -0.87631   -0.10069   -0.10804    ??        
 8.35u     -0.86074   -0.092691  -0.10047    ??        
 8.4u      -0.84433   -0.084272  -0.092479   ??        
 8.5u      -0.80902   -0.066203  -0.075237   ??        
 8.6u      -0.77051   -0.027699  -0.025079   ??        
 8.7u      -0.72897    0.013846  -0.0083597  ??        
 8.7167u   -0.72176    0.021054  -0.0059712  ??        
 8.7333u   -0.71447    0.028342  -0.0042652  ??        
 8.7556u   -0.70463    0.03818   -0.0027142  ??        
 8.7778u   -0.69466    0.048156  -0.0017272  ??        
 8.8u      -0.68455    0.058267  -0.0010991  ??        
 8.85u     -0.66131    0.081502  -366.38u    ??        
 8.9u      -0.63742    0.10539   -122.13u    ??        
 8.95u     -0.61291    0.12991   -40.709u    ??        
 9.u       -0.58779    0.15503   -13.57u     ??        
 9.0333u   -0.57071    0.12293    0.049162   ??        
 9.1u      -0.53583    0.1183     0.088671   ??        
 9.1111u   -0.52992    0.11829    0.094596   ??        
 9.1222u   -0.52399    0.11937    0.099442   ??        
 9.1417u   -0.51354    0.12277    0.10649    ??        
 9.1611u   -0.50302    0.12726    0.11252    ??        
 9.1806u   -0.49242    0.13225    0.11813    ??        
 9.2u      -0.48175    0.13747    0.12358    ??        
 9.2333u   -0.4633     0.14668    0.13283    ??        
 9.2667u   -0.44464    0.15607    0.1421     ??        
 9.3u      -0.42578    0.16556    0.15146    ??        
 9.4u      -0.36812    0.1946     0.18008    ??        
 9.5u      -0.30902    0.22432    0.20946    ??        
 9.6u      -0.24869    0.28465    0.06982    ??        
 9.7u      -0.18738    0.34596    0.023273   ??        
 9.7167u   -0.17708    0.35626    0.016624   ??        
 9.7333u   -0.16677    0.36657    0.011874   ??        
 9.7556u   -0.15299    0.38035    0.0075563  ??        
 9.7778u   -0.13917    0.39417    0.0048085  ??        
 9.8u      -0.12533    0.40801    0.00306    ??        
 9.85u     -0.094108   0.43923    0.00102    ??        
 9.9u      -0.062791   0.47055    340.u      ??        
 9.95u     -0.031411   0.50193    113.33u    ??        
 10.u       4.f        0.53334    37.777u    ??        
 10.033u    0.020942   0.39593    0.15839    ??        
 10.1u      0.062791   0.33618    0.25999    ??        
 10.11u     0.068762   0.32948    0.27266    ??        
 10.122u    0.076861   0.32508    0.28516    ??        
 10.135u    0.084956   0.32414    0.29419    ??        
 10.157u    0.098434   0.32657    0.30524    ??        
 10.178u    0.11189    0.33158    0.31369    ??        
 10.2u      0.12533    0.33761    0.3211     ??        
 10.233u    0.14608    0.34761    0.33185    ??        
 10.267u    0.16677    0.35785    0.34229    ??        
 10.3u      0.18738    0.36812    0.35264    ??        
 10.35u     0.21814    0.38345    0.36807    ??        
 10.4u      0.24869    0.39867    0.3834     ??        
 10.5u      0.30902    0.42871    0.41369    ??        
 10.6u      0.36812    0.48781    0.1379     ??        
 10.7u      0.42578    0.54547    0.045965   ??        
 10.717u    0.43523    0.55492    0.032832   ??        
 10.733u    0.44464    0.56432    0.023452   ??        
 10.756u    0.4571     0.57679    0.014924   ??        
 10.778u    0.46947    0.58916    0.009497   ??        
 10.8u      0.48175    0.60144    0.0060435  ??        
 10.85u     0.50904    0.62873    0.0020145  ??        
 10.9u      0.53583    0.65552    671.5u     ??        
 10.95u     0.56208    0.68177    223.83u    ??        
 11.u       0.58779    0.70747    74.611u    ??        
 11.033u    0.6046     0.51737    0.20699    ??        
 11.1u      0.63742    0.42539    0.33179    ??        
 11.11u     0.64202    0.41465    0.34714    ??        
 11.119u    0.6466     0.40806    0.35831    ??        
 11.133u    0.65304    0.40324    0.36956    ??        
 11.155u    0.66368    0.40178    0.38166    ??        
 11.178u    0.67418    0.40441    0.38953    ??        
 11.2u      0.68455    0.40856    0.39576    ??        
 11.222u    0.69478    0.41323    0.40131    ??        
 11.248u    0.70636    0.41878    0.40735    ??        
 11.274u    0.71776    0.42434    0.41318    ??        
 11.3u      0.72897    0.42984    0.41889    ??        
 11.35u     0.75011    0.44022    0.42965    ??        
 11.4u      0.77051    0.45024    0.44004    ??        
 11.5u      0.80902    0.46911    0.45967    ??        
 11.6u      0.84433    0.50442    0.15322    ??        
 11.7u      0.87631    0.5364     0.051075   ??        
 11.717u    0.8813     0.54139    0.036482   ??        
 11.733u    0.8862     0.54629    0.026059   ??        
 11.756u    0.89259    0.55268    0.016583   ??        
 11.778u    0.89879    0.55888    0.010553   ??        
 11.8u      0.90483    0.56492    0.0067153  ??        
 11.85u     0.91775    0.57784    0.0022384  ??        
 11.9u      0.92978    0.58987    746.15u    ??        
 11.95u     0.94088    0.60097    248.72u    ??        
 12.u       0.95106    0.61115    82.905u    ??        
 12.033u    0.95732    0.44103    0.17646    ??        
 12.1u      0.96858    0.35199    0.27676    ??        
 12.108u    0.96987    0.34244    0.2876     ??        
 12.121u    0.97184    0.33283    0.29919    ??        
 12.135u    0.97375    0.32755    0.30637    ??        
 12.156u    0.97678    0.32369    0.31327    ??        
 12.178u    0.97963    0.32293    0.31686    ??        
 12.2u      0.98229    0.32335    0.31911    ??        
 12.222u    0.98476    0.32416    0.32078    ??        
 12.244u    0.98706    0.32508    0.32215    ??        
 12.265u    0.98916    0.32597    0.32336    ??        
 12.3u      0.99211    0.32726    0.32503    ??        
 12.335u    0.9946     0.32832    0.32645    ??        
 12.367u    0.99652    0.32913    0.32757    ??        
 12.4u      0.99803    0.32972    0.32848    ??        
 12.5u      1.         0.33021    0.32996    ??        
 12.6u      0.99803    0.32824    0.10999    ??        
 12.7u      0.99211    0.32232    0.036663   ??        
 12.717u    0.99075    0.32096    0.026188   ??        
 12.733u    0.98927    0.31948    0.018705   ??        
 12.756u    0.98714    0.31735    0.011903   ??        
 12.778u    0.98481    0.31502    0.0075749  ??        
 12.8u      0.98229    0.3125     0.0048204  ??        
 12.85u     0.97592    0.30613    0.0016068  ??        
 12.9u      0.96858    0.29879    535.6u     ??        
 12.95u     0.96029    0.2905     178.53u    ??        
 13.u       0.95106    0.28127    59.511u    ??        
 13.033u    0.94438    0.19615    0.078496   ??        
 13.1u      0.92978    0.14408    0.11597    ??        
 13.108u    0.92784    0.13826    0.11985    ??        
 13.12u     0.92513    0.13237    0.12303    ??        
 13.131u    0.92237    0.12813    0.12451    ??        
 13.148u    0.91814    0.12352    0.1249     ??        
 13.166u    0.91381    0.12009    0.12399    ??        
 13.183u    0.90937    0.11722    0.12242    ??        
 13.2u      0.90483    0.11459    0.12051    ??        
 13.225u    0.89803    0.11089    0.1174     ??        
 13.263u    0.88741    0.10534    0.11234    ??        
 13.3u      0.87631    0.099615   0.10696    ??        
 13.35u     0.86074    0.091614   0.099397   ??        
