# PWL sources 
v1 ( 1 0 ) pwl( 0., 0.  1., 1.  4., 2.  9., 3.  16., 4.  25., 5. )
i1 ( 2 0 ) pwl( 0., 0.  1.,-1.  4., 2.  9.,-3.  16., 4.  25.,-5. )
r4 ( 2 0 )  10.K
#           v(1)       v(2)      
 27.        0.         0.        
#           v(1)       v(2)      
-10.       -10.        0.        
-9.        -9.         0.        
-8.        -8.         0.        
-7.        -7.         0.        
-6.        -6.         0.        
-5.        -5.         0.        
-4.        -4.         0.        
-3.        -3.         0.        
-2.        -2.         0.        
-1.        -1.         0.        
 0.         0.         0.        
 1.         1.         0.        
 2.         2.         0.        
 3.         3.         0.        
 4.         4.         0.        
 5.         5.         0.        
 6.         6.         0.        
 7.         7.         0.        
 8.         8.         0.        
 9.         9.         0.        
 10.        10.        0.        
#Time       v(1)       v(2)       i(i1)      disc(1)    disc(2)    event(i1)  hidden(0)  ord(i1)   
 0.         0.         0.         0.         2.         2.         1.         0.        -1.        
 1.         1.         10.K      -1.         2.         2.         4.         1.         1.        
 2.         1.3333     0.         0.         0.         0.         4.         1.         1.        
 3.         1.6667    -10.K       1.         0.         0.         4.         0.         2.        
 4.         2.        -20.K       2.         2.         2.         9.         0.         3.        
 5.         2.2       -10.K       1.         0.         0.         9.         0.         0.        
 6.         2.4        0.         0.         0.         0.         9.         0.         1.        
 7.         2.6        10.K      -1.         0.         0.         9.         0.         2.        
 8.         2.8        20.K      -2.         0.         0.         9.         0.         3.        
 9.         3.         30.K      -3.         2.         2.         16.        0.         3.        
 10.        3.1429     20.K      -2.         0.         0.         16.        0.         0.        
 11.        3.2857     10.K      -1.         0.         0.         16.        0.         1.        
 12.        3.4286     0.         0.         0.         0.         16.        0.         2.        
 13.        3.5714    -10.K       1.         0.         0.         16.        0.         3.        
 14.        3.7143    -20.K       2.         0.         0.         16.        0.         3.        
 15.        3.8571    -30.K       3.         0.         0.         16.        0.         3.        
 16.        4.        -40.K       4.         2.         2.         25.        0.         3.        
 17.        4.1111    -30.K       3.         0.         0.         25.        0.         0.        
 18.        4.2222    -20.K       2.         0.         0.         25.        0.         1.        
 19.        4.3333    -10.K       1.         0.         0.         25.        0.         2.        
 20.        4.4444     0.         0.         0.         0.         25.        0.         3.        
 21.        4.5556     10.K      -1.         0.         0.         25.        0.         3.        
 22.        4.6667     20.K      -2.         0.         0.         25.        0.         3.        
 23.        4.7778     30.K      -3.         0.         0.         25.        0.         3.        
 24.        4.8889     40.K      -4.         0.         0.         25.        0.         3.        
 25.        5.         50.K      -5.         0.         0.         0.         0.         3.        
 26.        5.         50.K      -5.         0.         0.         0.         0.         3.        
 27.        5.         50.K      -5.         0.         0.         0.         0.         3.        
 28.        5.         50.K      -5.         0.         0.         0.         0.         3.        
 29.        5.         50.K      -5.         0.         0.         0.         0.         3.        
 30.        5.         50.K      -5.         0.         0.         0.         0.         3.        
