V1 ( 1 0 ) pulse iv= 0. pv= 1. delay=NA( 0.) rise= 100.u fall= 100.u width=NA( Inf) period=NA( Inf) freq= 1.K duty= 0.3
V2 ( 2 0 ) pulse iv= 0. pv= 1. delay=NA( 0.) rise= 100.u fall= 100.u width=NA( Inf) period=NA( Inf) duty= 0.5
V2b ( 2b 0 ) pulse iv= 0. pv= 1. delay=NA( 0.) rise= 100.u fall= 100.u width=NA( Inf) period=NA( Inf) duty= 0.5 phase=-3.1415
V2c ( 2c 0 ) pulse iv= 0. pv= 1. delay=NA( 0.) rise= 100.u fall= 100.u width=NA( Inf) period=NA( Inf) duty= 0.5 phase= 6.28
V3 ( 3 0 ) pulse iv= 0. pv= 1. delay=NA( 0.) rise= 100.u fall= 100.u width=NA( Inf) period=NA( Inf) freq= 2.K duty= 0.4
V4 ( 4 0 ) pulse iv= 0. pv= 1. delay=NA( 0.) rise= 100.u fall= 100.u width= 500.u period=NA( Inf)
#Time       v(V1)      v(V2)      v(V2b)     v(V2c)     v(V3)      v(V4)     
 0.         0.         0.         0.         0.         0.         0.        
 50.u       0.5        0.5        0.         0.49493    0.5        0.5       
 100.u      1.         1.         0.         0.99493    1.         1.        
 150.u      1.         1.         0.         1.         1.         1.        
 200.u      1.         1.         0.         1.         1.         1.        
 250.u      1.         1.         0.         1.         0.5        1.        
 300.u      1.         1.         0.         1.        -218.3E-18  1.        
 350.u      0.5        1.         0.         1.         3.766E-18  1.        
 400.u     -436.6E-18  1.         0.         1.         0.         1.        
 450.u      7.532E-18  1.         0.         1.         0.         1.        
 500.u      7.532E-18  1.         147.46u    1.         0.         1.        
 550.u      7.532E-18  0.5        0.50015    0.50507    0.5        1.        
 600.u      7.532E-18 -1.5682f    1.         0.0050696  1.         1.        
 650.u      7.532E-18 -13.87E-18  1.        -16.91E-18  1.         0.5       
 700.u      7.532E-18 -13.87E-18  1.        -16.91E-18  1.        -1.5643f   
 750.u      7.532E-18 -13.87E-18  1.        -16.91E-18  0.5       -10.02E-18 
 800.u      0.         0.         1.         0.        -2.2192f    0.        
 850.u      0.         0.         1.         0.         1.279E-18  0.        
 900.u      0.         0.         1.         0.         1.279E-18  0.        
 950.u      0.         0.         1.         0.         1.279E-18  0.        
 0.001      0.         0.         0.99985    0.         1.279E-18  0.        
Gnucap   System status
iterations: op=0, dc=0, tran=136, fourier=0, total=182
transient timesteps: accepted=43, rejected=3, total=46
nodes: user=6, subckt=0, model=0, total=6
dctran density=16.7%, ac density=16.7%
