#Time       v(1)       v(2)       next(c1)   event(v1)  ev(v1)     dis(1)     dis(2)     method(c1) hidden(0)  ord(c1)   
 0.         0.         0.         0.         1.1        0.         0.         0.        -1.         0.        -1.        
 0.012      0.         0.         0.024      1.1        0.         0.         0.         4.         0.         0.        
 0.024      0.         0.         0.036      1.1        0.         0.         0.         2.         0.         1.        
 0.036      0.         0.         0.048      1.1        0.         0.         0.         2.         0.         2.        
 0.048      0.         0.         0.         1.1        0.         0.         0.         2.         0.         2.        
 0.06       0.         0.         0.         1.1        0.         0.         0.         2.         0.         2.        
 1.1        0.         0.         0.         0.         0.         2.         2.         2.         0.         2.        
 1.2        0.99999    0.090908   1.1014     0.         1.         2.         2.         4.         0.         0.        
 1.1014     0.99999    0.0013869  1.1        0.         1.         2.         2.         4.         0.         0.        
 1.1        0.99999    19.~u      1.1        0.         1.         2.         2.         4.         0.         0.        
 1.1        0.99999    2~~.n      1.1        0.         1.         2.         2.         4.         0.         0.        
 1.1        0.99999    3.~n       1.1        0.         1.         2.         2.         4.         0.         0.        
 1.1        0.99999    ~.~n       1.1        0.         1.         0.         0.         4.         0.         0.        
 1.1        0.99999    ~.~n       1.1        0.         1.         0.         0.         2.         0.         1.        
 1.1        0.99999    ~.~n       1.1        0.         1.         0.         0.         2.         0.         2.        
 1.1        0.99999    ~.~n       1.100~     0.         1.         0.         0.         2.         0.         2.        
 1.1        0.99999    ~.~n       1.100~     0.         1.         0.         0.         2.         0.         2.        
 1.1001     0.99999    1~~.~u     1.1~       0.         1.         0.         0.         2.         0.         2.        
 1.1~       0.99999    0.01~      1.2~       0.         1.         0.         0.         2.         0.         2.        
 1.2        0.99999    0.095~     1.3~       0.         1.         0.         0.         2.         0.         2.        
#Time       v(1)       v(2)       next(c1)   event(v1)  ev(v1)     dis(1)     dis(2)     method(c1) hidden(0)  ord(c1)   
 0.         0.         0.         0.         1.1        0.         0.         0.        -1.         0.        -1.        
 0.02       0.         0.         0.04       1.1        0.         0.         0.         4.         0.         0.        
 0.04       0.         0.         0.06       1.1        0.         0.         0.         2.         0.         1.        
 0.06       0.         0.         0.08       1.1        0.         0.         0.         2.         0.         2.        
 0.08       0.         0.         0.         1.1        0.         0.         0.         2.         0.         2.        
 0.1        0.         0.         0.         1.1        0.         0.         0.         2.         0.         2.        
 1.1        0.         0.         0.         0.         0.         3.         3.         2.         0.         2.        
 2.         0.99999    0.47368    0.         0.         1.         0.         0.         1.         0.        -1.        
#Time       v(1)       v(2)       next(c1)   event(v1)  ev(v1)     dis(1)     dis(2)     method(c1) hidden(0)  ord(c1)   
 0.         0.         0.         0.         1.1        0.         0.         0.        -1.         0.        -1.        
 0.001      0.         0.         0.002      1.1        0.         0.         0.         4.         0.         0.        
 0.002      0.         0.         0.003      1.1        0.         0.         0.         2.         0.         1.        
 0.003      0.         0.         0.004      1.1        0.         0.         0.         2.         0.         2.        
 0.004      0.         0.         0.         1.1        0.         0.         0.         2.         0.         2.        
 0.005      0.         0.         0.         1.1        0.         0.         0.         2.         0.         2.        
 0.1        0.         0.         0.         1.1        0.         0.         0.         2.         0.         2.        
 0.2        0.         0.         0.         1.1        0.         0.         0.         2.         0.         2.        
 0.3        0.         0.         0.         1.1        0.         0.         0.         2.         0.         2.        
 0.4        0.         0.         0.         1.1        0.         0.         0.         2.         0.         2.        
 0.5        0.         0.         0.         1.1        0.         0.         0.         2.         0.         2.        
 0.6        0.         0.         0.         1.1        0.         0.         0.         2.         0.         2.        
 0.7        0.         0.         0.         1.1        0.         0.         0.         2.         0.         2.        
 0.8        0.         0.         0.         1.1        0.         0.         0.         2.         0.         2.        
 0.9        0.         0.         0.         1.1        0.         0.         0.         2.         0.         2.        
 1.         0.         0.         0.         1.1        0.         0.         0.         2.         0.         2.        
 1.1        0.         0.         0.         0.         0.         3.         3.         2.         0.         2.        
 1.2        0.99999    0.090908   0.         0.         1.         0.         0.         1.         0.        -1.        
 1.3        0.99999    0.17355    1.2029     0.         1.         0.         0.         4.         0.         0.        
 1.2029     0.99999    0.093498   1.2043     0.         1.         0.         0.         4.         0.         0.        
 1.2043     0.99999    0.094792   1.3667     0.         1.         0.         0.         2.         0.         1.        
 1.3        0.99999    0.17748    1.396      0.         1.         0.         0.         2.         0.         2.        
 1.3957     0.99999    0.25261    1.7198     0.         1.         0.         0.         2.         0.         2.        
 1.4        0.99999    0.2558     1.7242     0.         1.         0.         0.         2.         0.         2.        
 1.5        0.99999    0.32668    1.7926     0.         1.         0.         0.         2.         0.         2.        
 1.6        0.99999    0.3908     1.9987     0.         1.         0.         0.         2.         0.         2.        
 1.7        0.99999    0.44882    2.0885     0.         1.         0.         0.         2.         0.         2.        
 1.8        1.         0.50131    2.2168     0.         1.         0.         0.         2.         0.         2.        
 1.9        1.         0.54881    2.3441     0.         1.         0.         0.         2.         0.         2.        
 2.         1.         0.59178    2.4709     0.         1.         0.         0.         2.         0.         2.        
#Time       v(1)       v(2)       next(c1)   event(v1)  ev(v1)     dis(1)     dis(2)     method(c1) hidden(0)  ord(c1)   
 0.         0.         0.         0.         1.1        0.         0.         0.        -1.         0.        -1.        
 0.2        0.         0.         0.4        1.1        0.         0.         0.         4.         0.         0.        
 0.4        0.         0.         0.6        1.1        0.         0.         0.         2.         0.         1.        
 0.6        0.         0.         0.8        1.1        0.         0.         0.         2.         0.         2.        
 0.8        0.         0.         0.         1.1        0.         0.         0.         2.         0.         2.        
 1.         0.         0.         0.         1.1        0.         0.         0.         2.         0.         2.        
 1.1        0.         0.         0.         0.         0.         3.         3.         2.         0.         2.        
 20.        1.         0.94975    0.         0.         1.         0.         0.         1.         0.        -1.        
#Time       v(1)       v(2)       next(c1)   event(v1)  ev(v1)     dis(1)     dis(2)     method(c1) hidden(0)  ord(c1)   
 0.         0.         0.         0.         1.1        0.         0.         0.        -1.         0.        -1.        
 1.         0.         0.         0.         1.1        0.         0.         0.         2.         14.        2.        
 2.         1.         0.59178    2.471      0.         1.         0.         0.         2.         1~.        2.        
 3.         1.         0.84995    3.82~      0.         1.         0.         0.         2.         10.        2.        
 4.         1.         0.94484    5.0725     0.         1.         0.         0.         2.         9.         2.        
 5.         1.         0.97973    6.5155     0.         1.         0.         0.         2.         9.         2.        
 6.         1.         0.99255    8.1248     0.         1.         0.         0.         2.         9.         2.        
 7.         1.         0.99726    9.970~     0.         1.         0.         0.         2.         9.         2.        
 8.         1.         0.99899    12.15      0.         1.         0.         0.         2.         9.         2.        
 9.         1.         0.99963    14.794     0.         1.         0.         0.         2.         9.         2.        
 10.        1.         0.99986    18.089     0.         1.         0.         0.         2.         9.         2.        
 11.        1.         0.99995    22.293     0.         1.         0.         0.         2.         9.         2.        
 12.        1.         0.99998    27.765     0.         1.         0.         0.         2.         9.         2.        
 13.        1.         0.99999    35.008     0.         1.         0.         0.         2.         9.         2.        
 14.        1.         1.         44.723     0.         1.         0.         0.         2.         9.         2.        
 15.        1.         1.         57.8~      0.         1.         0.         0.         2.         9.         2.        
 16.        1.         1.         75.87~     0.         1.         0.         0.         2.         9.         2.        
 17.        1.         1.         100.58     0.         1.         0.         0.         2.         9.         2.        
 18.        1.         1.         134.68     0.         1.         0.         0.         2.         9.         2.        
 19.        1.         1.         181.89     0.         1.         0.         0.         2.         9.         2.        
 20.        1.         1.         247.39     0.         1.         0.         0.         2.         9.         2.        
#Time       v(1)       v(2)       next(c1)   event(v1)  ev(v1)     dis(1)     dis(2)     method(c1) hidden(0)  ord(c1)   
 0.         0.         0.         0.         1.1        0.         0.         0.        -1.         0.        -1.        
 1.2        0.99999    0.095107   1.4055     0.         1.         0.         0.         2.         108.       2.        
