' sin test 
#Time       v(1)       next(V1)   event(V1) 
 0.         0.         2.n        2.5n      
 200.p      0.12533    2.2n       2.5n      
 249.5p     0.15612    279.11p    2.5n      
 279.07p    0.17445    635.89p    2.5n      
 631.23p    0.38629    1.3939n    2.5n      
 1.3762n    0.76089    2.4954n    2.5n      
 2.4717n    0.99984    3.9551n    2.5n      
 2.5n       1.         4.1934n    5.n       
 4.0909n    0.54064    6.0909n    5.n       
 5.n        0.         6.4095n    7.5n      
 6.3636n   -0.75575    7.9329n    7.5n      
 7.5n      -1.         9.3785n    10.n      
 9.2857n   -0.43388    11.286n    10.n      
 10.n       0.         11.48n     12.5n     
 11.429n    0.78183    13.127n    12.5n     
 12.5n      1.         14.5n      15.n      
 14.375n    0.38268    16.375n    15.n      
 15.n       0.         16.416n    17.5n     
 16.25n    -0.70711    17.938n    17.5n     
 17.5n     -1.         19.5n      20.n      
 18.75n    -0.70711    20.75n     20.n      
 20.n       0.         21.641n    22.5n     
V1 ( 1 0 ) sin offset= 0. amplitude= 1. frequency= 100.Meg samples= 5. zero=1 peak=1
Gnucap   System status
iterations: op=0, dc=0, tran=71, fourier=0, total=95
transient timesteps: accepted=22, rejected=2, total=24
nodes: user=1, subckt=0, model=0, total=1
dctran density=100.0%, ac density=100.0%
