' sin test 
#Time       v(1)       next(V1)   event(V1) 
 0.         0.         0.         2.5n      
 200.p      0.12533    0.         2.5n      
 257.5p     0.16109    288.06p    2.5n      
 288.06p    0.18001    649.71p    2.5n      
 646.46p    0.39511    1.4183n    2.5n      
 1.3908n    0.76683    2.5162n    2.5n      
 2.5n       1.         3.9922n    5.n       
 3.6092n    0.76683    5.6051n    5.n       
 5.n        0.         6.6996n    7.5n      
 6.3908n   -0.76683    8.0019n    7.5n      
 7.5n      -1.         9.3603n    10.n      
 9.2857n   -0.43388    12.334n    10.n      
 10.n       0.         11.479n    12.5n     
 11.429n    0.78183    13.127n    12.5n     
 12.5n      1.         14.698n    15.n      
 14.375n    0.38268    16.504n    15.n      
 15.n       0.         16.416n    17.5n     
 16.25n    -0.70711    17.938n    17.5n     
 17.5n     -1.         19.92n     20.n      
 18.75n    -0.70711    20.849n    20.n      
 20.n       0.         21.641n    22.5n     
V1 ( 1 0 ) sin offset= 0. amplitude= 1. frequency= 100.Meg samples= 0. zero=1 peak=1
Gnucap   System status
iterations: op=0, dc=0, tran=68, fourier=0, total=91
transient timesteps: accepted=21, rejected=2, total=23
nodes: user=1, subckt=0, model=0, total=1
dctran density=100.0%, ac density=100.0%
