' sin test 
#Time       v(1)       next(V1)   event(V1) 
 0.         0.         0.         1.n       
 200.p      0.         0.         1.n       
 1.n        0.         2.4286n    2.5n      
<<<<<<< HEAD:tests/bm_sin.8.ckt.ref
 2.3571n    0.75307    3.~n       2.5n      
 2.5n       0.80902    2.8~n      5.n       
 2.8~n      0.9~       3.~n       5.n       
 3.5~n      0.9~       4.~n       5.n       
 4.~n       0.~        6.3~n      5.n       
 5.n        0.587~     6.4~n      7.5n      
 6.3636n   -0.2265     7.7~n      7.5n      
=======
 2.3571n    0.75307    3.5134n    2.5n      
 2.5n       0.80902    3.4185n    5.n       
 3.375n     0.99692    4.8036n    5.n       
 4.7604n    0.70246    6.189n     5.n       
 5.n        0.58779    6.4286n    7.5n      
 6.3636n   -0.2265     7.7625n    7.5n      
>>>>>>> unstable:tests/==out/bm_sin.8.ckt.out
 7.5n      -0.80902    8.9286n    10.n      
 8.6364n   -0.99633    10.065n    10.n      
 10.n      -0.58779    11.429n    12.5n     
 11.364n    0.2265     12.792n    12.5n     
 12.5n      0.80902    13.929n    15.n      
 13.636n    0.99633    15.065n    15.n      
 15.n       0.58779    16.429n    17.5n     
 16.364n   -0.2265     17.792n    17.5n     
 17.5n     -0.80902    18.929n    20.n      
 18.636n   -0.99633    20.065n    20.n      
 20.n      -0.58779    21.429n    22.5n     
V1 ( 1 0 ) sin offset= 0. amplitude= 1. frequency= 100.Meg delay= 1.n samples= 7. zero=1 peak=1
Gnucap   System status
<<<<<<< HEAD:tests/bm_sin.8.ckt.ref
iterations: op=0, dc=0, tran=6~, fourier=0, total=8~
transient timesteps: accepted=2~, rejected=0, total=2~
=======
iterations: op=0, dc=0, tran=57, fourier=0, total=77
transient timesteps: accepted=20, rejected=0, total=20
>>>>>>> unstable:tests/==out/bm_sin.8.ckt.out
nodes: user=1, subckt=0, model=0, total=1
dctran density=100.0%, ac density=100.0%
