' sin test 
#Time       v(1)       next(V1)   event(V1) 
 0.         0.         1.n        0.        
 200.p      0.12533    1.2n       0.        
 235.36p    0.14734    263.29p    0.        
 263.27p    0.16467    611.37p    0.        
 609.53p    0.37369    1.359n     0.        
 1.3553n    0.75232    2.3553n    0.        
 2.1011n    0.96876    3.1011n    0.        
 2.8469n    0.97634    3.8469n    0.        
 3.5927n    0.77344    4.5927n    0.        
 4.3385n    0.40379    5.3385n    0.        
 5.0843n   -0.052914   6.0843n    0.        
 5.83n     -0.49821    6.83n      0.        
 6.5758n   -0.83609    7.5758n    0.        
 7.3216n   -0.99373    8.3216n    0.        
 8.0674n   -0.93712    9.0674n    0.        
 8.8132n   -0.67848    9.8132n    0.        
 9.559n    -0.27357    10.559n    0.        
 10.305n    0.19032    11.305n    0.        
 11.051n    0.61318    12.051n    0.        
 11.796n    0.90385    12.796n    0.        
 12.542n    0.99965    13.542n    0.        
 13.288n    0.87994    14.288n    0.        
 14.034n    0.57052    15.034n    0.        
 14.779n    0.13811    15.779n    0.        
 15.525n   -0.32408    16.525n    0.        
 16.271n   -0.7164     17.271n    0.        
 17.017n   -0.95427    18.017n    0.        
 17.763n   -0.98641    18.763n    0.        
 18.508n   -0.80589    19.508n    0.        
 19.254n   -0.45163    20.254n    0.        
 20.n       0.         21.n       0.        
V1 ( 1 0 ) sin offset= 0. amplitude= 1. frequency= 100.Meg samples= 10.
Gnucap   System status
iterations: op=0, dc=0, tran=98, fourier=0, total=131
transient timesteps: accepted=31, rejected=2, total=33
nodes: user=1, subckt=0, model=0, total=1
dctran density=100.0%, ac density=100.0%
