' sin test 
#Time       v(1)       next(V1)   event(V1) 
 0.         0.         1.n        0.        
 2.p        0.0012566  57.704p    0.        
 15.926p    0.010007   30.853p    0.        
 29.852p    0.018756   551.27p    0.        
 541.91p    0.33395    1.2467n    0.        
 1.054n     0.61487    2.0319n    0.        
 2.0013n    0.9513     3.0013n    0.        
 2.9486n    0.96054    3.9486n    0.        
 3.8959n    0.63942    4.8959n    0.        
 4.8432n    0.09838    5.8432n    0.        
 5.7905n   -0.4765     6.7905n    0.        
 6.7378n   -0.88749    7.7378n    0.        
 7.6851n   -0.99325    8.6851n    0.        
 8.6324n   -0.75739    9.6324n    0.        
 9.5797n   -0.26104    10.58n     0.        
 10.527n    0.32509    11.527n    0.        
 11.474n    0.79941    12.474n    0.        
 12.422n    0.99879    13.422n    0.        
 13.369n    0.85464    14.369n    0.        
 14.316n    0.41655    15.316n    0.        
 15.263n   -0.1648     16.263n    0.        
 16.211n   -0.68947    17.211n    0.        
 17.158n   -0.97701    18.158n    0.        
 18.105n   -0.92852    19.105n    0.        
 19.053n   -0.56068    20.053n    0.        
 20.n       0.         21.n       0.        
V1 ( 1 0 ) sin offset= 0. amplitude= 1. frequency= 100.Meg samples= 10.
Gnucap   System status
iterations: op=0, dc=0, tran=83, fourier=0, total=111
transient timesteps: accepted=26, rejected=2, total=28
nodes: user=1, subckt=0, model=0, total=1
dctran density=100.0%, ac density=100.0%
