spice 
*.options trace 
v1 ( n1 0 ) pulse iv= 0. pv= 1. delay= 0.001 rise= 0.001 fall= 0.005 width= 0.003 period=NA( Inf)
v2 ( n3 0 ) pulse iv= 0. pv= 1. delay= 0.003 rise= 0.001 fall= 0.005 width= 0.003 period=NA( Inf)
cd ( n1 n3 )  0.
c1 ( n2 0 )  200.n
r1 ( n1 n2 )  1.K
c2 ( n4 0 )  200.n
r2 ( n3 n4 )  1.K
#Time       v(n1)      v(n2)      v(n3)      v(n4)      method(cd) method(c1) method(c2) disc(n1)   disc(n2)   disc(n3)   disc(n4)   hidden(0) 
 0.         0.         0.         0.         0.        -1.        -1.        -1.         0.         0.         0.         0.         0.        
 50.E-6     0.         0.         0.         0.         4.         4.         4.         0.         0.         0.         0.         0.        
 100.E-6    0.         0.         0.         0.         2.         2.         2.         0.         0.         0.         0.         0.        
 0.001      0.         0.         0.         0.         2.         2.         2.         2.         2.         0.         0.         0.        
 0.002      1.         0.83333    0.         0.         4.         4.         2.         2.         2.         0.         0.         0.        
 0.003      1.         0.97222    0.         0.         4.         4.         2.         0.         0.         2.         2.         0.        
 0.004      1.         1.0119     1.         0.83333    4.         2.         4.         0.         0.         2.         2.         0.        
 0.005      1.         0.9949     1.         0.97222    4.         2.         4.         2.         2.         0.         0.         0.        
Gnucap   System status
iterations: op=0, dc=0, tran=28, fourier=0, total=36
transient timesteps: accepted=8, rejected=0, total=8
nodes: user=4, subckt=0, model=0, total=4
dctran density=75.0%, ac density=75.0%
traponly 
#Time       v(n1)      v(n2)      v(n3)      v(n4)      method(cd) method(c1) method(c2) disc(n1)   disc(n2)   disc(n3)   disc(n4)   hidden(0) 
 0.         0.         0.         0.         0.        -1.        -1.        -1.         0.         0.         0.         0.         0.        
 50.u       0.         0.         0.         0.         2.         2.         2.         0.         0.         0.         0.         0.        
 100.u      0.         0.         0.         0.         2.         2.         2.         0.         0.         0.         0.         0.        
 150.u      0.         0.         0.         0.         2.         2.         2.         0.         0.         0.         0.         0.        
 200.u      0.         0.         0.         0.         2.         2.         2.         0.         0.         0.         0.         0.        
 250.u      0.         0.         0.         0.         2.         2.         2.         0.         0.         0.         0.         0.        
 0.001      0.         0.         0.         0.         2.         2.         2.         2.         2.         0.         0.         0.        
 0.0010006  578.7u     836.04n    0.         0.         2.         2.         2.         0.         0.         0.         0.         3.        
 0.0010013  0.0013053  4.2494u    0.         0.         2.         2.         2.         0.         0.         0.         0.         1.        
 0.001002   0.002032   10.286u    0.         0.         2.         2.         2.         0.         0.         0.         0.         0.        
 0.0010076  0.0076235  143.11u    0.         0.         2.         2.         2.         0.         0.         0.         0.         0.        
 0.0010132  0.013215   426.45u    0.         0.         2.         2.         2.         0.         0.         0.         0.         0.        
 0.0010255  0.02552    0.001557   0.         0.         2.         2.         2.         0.         0.         0.         0.         0.        
 0.0010378  0.037825   0.0033546  0.         0.         2.         2.         2.         0.         0.         0.         0.         0.        
 0.001062   0.061984   0.0086574  0.         0.         2.         2.         2.         0.         0.         0.         0.         0.        
 0.0010861  0.086144   0.016108   0.         0.         2.         2.         2.         0.         0.         0.         0.         0.        
 0.0011287  0.12869    0.033663   0.         0.         2.         2.         2.         0.         0.         0.         0.         0.        
 0.0011712  0.17123    0.056022   0.         0.         2.         2.         2.         0.         0.         0.         0.         0.        
 0.0012421  0.24213    0.10139    0.         0.         2.         2.         2.         0.         0.         0.         0.         0.        
 0.001313   0.31303    0.15445    0.         0.         2.         2.         2.         0.         0.         0.         0.         0.        
 0.0014283  0.42825    0.25114    0.         0.         2.         2.         2.         0.         0.         0.         0.         0.        
 0.0015435  0.54347    0.35612    0.         0.         2.         2.         2.         0.         0.         0.         0.         0.        
 0.0017468  0.74679    0.55092    0.         0.         2.         2.         2.         0.         0.         0.         0.         0.        
 0.002      1.         0.80093    0.         0.         2.         2.         2.         2.         2.         0.         0.         0.        
 0.002125   1.         0.89572    0.         0.         2.         2.         2.         0.         0.         0.         0.         1.        
 0.0022241  1.         0.93715    0.         0.         2.         2.         2.         0.         0.         0.         0.         0.        
 0.0023784  1.         0.97213    0.         0.         2.         2.         2.         0.         0.         0.         0.         0.        
 0.0025326  1.         0.98764    0.         0.         2.         2.         2.         0.         0.         0.         0.         0.        
 0.0027793  1.         0.99707    0.         0.         2.         2.         2.         0.         0.         0.         0.         0.        
 0.003      1.         0.99915    0.         0.         2.         2.         2.         0.         0.         2.         2.         0.        
 0.0030006  1.         0.99916    555.56u    770.53n    2.         2.         2.         0.         0.         0.         0.         3.        
 0.0030013  1.         0.99916    0.0013118  4.2912u    2.         2.         2.         0.         0.         0.         0.         1.        
 0.0030021  1.         0.99916    0.002068   10.653u    2.         2.         2.         0.         0.         0.         0.         0.        
 0.0030077  1.         0.99919    0.0076802  145.24u    2.         2.         2.         0.         0.         0.         0.         0.        
 0.0030133  1.         0.99921    0.013292   431.4u     2.         2.         2.         0.         0.         0.         0.         0.        
 0.0030256  1.         0.99926    0.025632   0.0015704  2.         2.         2.         0.         0.         0.         0.         0.        
 0.003038   1.         0.9993     0.037972   0.0033799  2.         2.         2.         0.         0.         0.         0.         0.        
 0.0030622  1.         0.99938    0.062194   0.0087133  2.         2.         2.         0.         0.         0.         0.         0.        
 0.0030864  1.         0.99945    0.086417   0.016204   2.         2.         2.         0.         0.         0.         0.         0.        
 0.0031289  1.         0.99956    0.12894    0.033784   2.         2.         2.         0.         0.         0.         0.         0.        
 0.0031715  1.         0.99964    0.17147    0.056159   2.         2.         2.         0.         0.         0.         0.         0.        
 0.0032418  1.         0.99975    0.24179    0.10116    2.         2.         2.         0.         0.         0.         0.         0.        
 0.0033121  1.         0.99982    0.31212    0.15373    2.         2.         2.         0.         0.         0.         0.         0.        
 0.0034246  1.         0.9999     0.42465    0.24799    2.         2.         2.         0.         0.         0.         0.         0.        
 0.0035372  1.         0.99994    0.53717    0.35026    2.         2.         2.         0.         0.         0.         0.         0.        
 0.00372    1.         0.99998    0.72003    0.5249     2.         2.         2.         0.         0.         0.         0.         0.        
 0.0039029  1.         0.99999    0.90288    0.7047     2.         2.         2.         0.         0.         0.         0.         0.        
 0.004      1.         1.         1.         0.801~     2.         2.         2.         0.         0.         2.         2.         0.        
 0.004~     1.         1.         1.         0.88~      2.         2.         2.         0.         0.         0.         0.         1.        
 0.004~     1.         1.         1.         0.93~      2.         2.         2.         0.         0.         0.         0.         0.        
 0.004~     1.         1.         1.         0.96~      2.         2.         2.         0.         0.         0.         0.         0.        
 0.004~     1.         1.         1.         0.98~      2.         2.         2.         0.         0.         0.         0.         0.        
 0.004~     1.         1.         1.         0.99~      2.         2.         2.         0.         0.         0.         0.         0.        
 0.0048333  1.         1.         1.         0.997~     2.         2.         2.         0.         0.         0.         0.         0.        
 0.005      1.         1.         1.         0.99897    2.         2.         2.         2.         2.         0.         0.         0.        
Gnucap   System status
iterations: op=0, dc=0, tran=252, fourier=0, total=353
transient timesteps: accepted=63, rejected=10, total=73
nodes: user=4, subckt=0, model=0, total=4
dctran density=75.0%, ac density=75.0%
