spice 
* testing discontinuity propagation through r 
*.options trace 
v1 ( n1 0 ) pulse iv= 0. pv= 1. delay= 0.001 rise= 0.001 fall= 0.005 width= 0.003 period=NA( Inf)
c1 ( n2 0 )  200.n
r1 ( n1 n2 )  1.K
#Time       v(n1)      v(n2)      method(c1) disc(n1)   disc(n2)   hidden(0)  event(v1)  order(v1)  ord(c1)   
 0.         0.         0.        -1.         0.         0.         0.         0.001     -1.        -1.        
 200.u      0.         0.         4.         0.         0.         0.         0.001      0.         0.        
 400.u      0.         0.         2.         0.         0.         0.         0.001      1.         1.        
 600.u      0.         0.         2.         0.         0.         0.         0.001      2.         2.        
 800.u      0.         0.         2.         0.         0.         0.         0.001      3.         2.        
 0.001      0.         0.         2.         2.         2.         0.         0.002      3.         2.        
 0.0010002  192.9u     185.88n    4.         0.         0.         2.         0.002      0.         0.        
 0.0010009  919.36u    2.2016u    2.         0.         0.         0.         0.002      1.         1.        
 0.0010016  0.0016458  6.8439u    2.         0.         0.         0.         0.002      2.         2.        
 0.001003   0.0029507  21.745u    2.         0.         0.         0.         0.002      3.         2.        
 0.0010083  0.0083019  169.72u    2.         0.         0.         0.         0.002      3.         2.        
 0.0010137  0.013653   455.08u    2.         0.         0.         0.         0.002      3.         2.        
 0.0010261  0.026054   0.0016218  2.         0.         0.         0.         0.002      3.         2.        
 0.0010385  0.038456   0.0034641  2.         0.         0.         0.         0.002      3.         2.        
 0.001063   0.062986   0.0089252  2.         0.         0.         0.         0.002      3.         2.        
 0.0010875  0.087515   0.01659    2.         0.         0.         0.         0.002      3.         2.        
 0.0011309  0.13089    0.034711   2.         0.         0.         0.         0.002      3.         2.        
 0.0011743  0.17427    0.057775   2.         0.         0.         0.         0.002      3.         2.        
 0.0012464  0.2464     0.10439    2.         0.         0.         0.         0.002      3.         2.        
 0.0013185  0.31853    0.1588     2.         0.         0.         0.         0.002      3.         2.        
 0.0014383  0.43828    0.26       2.         0.         0.         0.         0.002      3.         2.        
 0.001558   0.55803    0.36974    2.         0.         0.         0.         0.002      3.         2.        
 0.0017676  0.7676     0.57126    2.         0.         0.         0.         0.002      3.         2.        
 0.002      1.         0.80097    2.         2.         2.         0.         0.005      3.         2.        
 0.002013   1.         0.813~     4.         0.         0.         2.         0.005      0.         0.        
 0.002026   1.         0.824~     2.         0.         0.         0.         0.005      1.         1.        
 0.0022005  1.         0.931~     2.         0.         0.         0.         0.005      2.         2.        
 0.002375   1.         0.973~     2.         0.         0.         0.         0.005      3.         2.        
 0.0025495  1.         0.989~     2.         0.         0.         0.         0.005      3.         2.        
 0.002724   1.         0.995~     2.         0.         0.         0.         0.005      3.         2.        
 0.0030271  1.         0.999~     2.         0.         0.         0.         0.005      3.         2.        
 0.0033302  1.         0.999~     2.         0.         0.         0.         0.005      3.         2.        
 0.003997   1.         1.         2.         0.         0.         0.         0.005      3.         2.        
 0.005      1.         0.99999    2.         2.         2.         0.         0.01       3.         2.        
 0.0050735  0.98529    0.99604    4.         0.         0.         1.         0.01       0.         0.        
 0.0053309  0.93382    0.96748    2.         0.         0.         0.         0.01       1.         1.        
 0.0058199  0.83603    0.87666    2.         0.         0.         0.         0.01       2.         2.        
 0.0063088  0.73824    0.77817    2.         0.         0.         0.         0.01       3.         2.        
 0.0067978  0.64044    0.68045    2.         0.         0.         0.         0.01       3.         2.        
 0.0077408  0.45184    0.49184    2.         0.         0.         0.         0.01       3.         2.        
 0.009784   0.043199   0.0832     2.         0.         0.         0.         0.01       3.         2.        
 0.01       400.p      0.040001   2.         2.         2.         0.         0.         3.         2.        
 0.010004   392.52p    0.039252   4.         0.         0.         2.         0.         0.         0.        
 0.010007   386.96p    0.038696   2.         0.         0.         0.         0.         1.         1.        
 0.010095   246.83p    0.024683   2.         0.         0.         0.         0.         2.         2.        
 0.010159   178.45p    0.017845   2.         0.         0.         0.         0.         3.         2.        
 0.010257   108.55p    0.010854   2.         0.         0.         0.         0.         3.         2.        
 0.010354   66.024p    0.0066024  2.         0.         0.         0.         0.         3.         2.        
 0.010452   40.16p     0.004016   2.         0.         0.         0.         0.         3.         2.        
 0.010549   24.428p    0.0024428  2.         0.         0.         0.         0.         3.         2.        
 0.010647   14.858p    0.0014858  2.         0.         0.         0.         0.         3.         2.        
 0.010744   9.038p     903.78u    2.         0.         0.         0.         0.         3.         2.        
 0.010841   5.497p     549.73u    2.         0.         0.         0.         0.         3.         2.        
 0.010939   3.344p     334.38u    2.         0.         0.         0.         0.         3.         2.        
 0.011036   2.034p     203.39u    2.         0.         0.         0.         0.         3.         2.        
 0.011134   1.237p     123.72u    2.         0.         0.         0.         0.         3.         2.        
 0.011231   753.f      75.251u    2.         0.         0.         0.         0.         3.         2.        
 0.011329   458.f      45.773u    2.         0.         0.         0.         0.         3.         2.        
 0.011426   278.f      27.842u    2.         0.         0.         0.         0.         3.         2.        
 0.011523   169.f      16.935u    2.         0.         0.         0.         0.         3.         2.        
 0.011621   103.f      10.301u    2.         0.         0.         0.         0.         3.         2.        
 0.011718   63.f       6.2657u    2.         0.         0.         0.         0.         3.         2.        
 0.011816   38.f       3.8112u    2.         0.         0.         0.         0.         3.         2.        
 0.01197    17.f       1.6882u    2.         0.         0.         0.         0.         3.         2.        
 0.012125   7.f        747.77n    2.         0.         0.         0.         0.         3.         2.        
 0.012363   2.f        188.92n    2.         0.         0.         0.         0.         3.         2.        
 0.012602   0.         47.73n     2.         0.         0.         0.         0.         3.         2.        
 0.013013   0.        -647.73p    2.         0.         0.         0.         0.         3.         2.        
 0.013424   0.         8.79p      2.         0.         0.         0.         0.         3.         2.        
 0.014363   0.        -3.54p      2.         0.         0.         0.         0.         3.         2.        
 0.016242   0.         2.297p     2.         0.         0.         0.         0.         3.         2.        
 0.02       0.        -1.855p     2.         0.         0.         0.         0.         3.         2.        
Gnucap   System status
iterations: op=0, dc=0, tran=298, fourier=0, total=377
transient timesteps: accepted=72, rejected=7, total=79
nodes: user=2, subckt=0, model=0, total=2
dctran density=100.0%, ac density=100.0%
initsc -1, traponly 
#Time       v(n1)      v(n2)      method(c1) disc(n1)   disc(n2)   hidden(0)  event(v1)  order(v1)  ord(c1)   
 0.         0.         0.        -1.         0.         0.         0.         0.001     -1.        -1.        
 200.u      0.         0.         2.         0.         0.         0.         0.001      0.         0.        
 400.u      0.         0.         2.         0.         0.         0.         0.001      1.         1.        
 600.u      0.         0.         2.         0.         0.         0.         0.001      2.         2.        
 800.u      0.         0.         2.         0.         0.         0.         0.001      3.         2.        
 0.001      0.         0.         2.         2.         2.         0.         0.002      3.         2.        
 0.0010006  578.7u     836.04n    2.         0.         0.         3.         0.002      0.         0.        
 0.0010013  0.0013054  4.2499u    2.         0.         0.         1.         0.002      1.         1.        
 0.001002   0.0020321  10.287u    2.         0.         0.         0.         0.002      2.         2.        
 0.0010076  0.007628   143.28u    2.         0.         0.         0.         0.002      3.         2.        
 0.0010132  0.013224   427.01u    2.         0.         0.         0.         0.002      3.         2.        
 0.0010255  0.025537   0.001559   2.         0.         0.         0.         0.002      3.         2.        
 0.0010379  0.03785    0.0033589  2.         0.         0.         0.         0.002      3.         2.        
 0.0010621  0.062067   0.0086794  2.         0.         0.         0.         0.002      3.         2.        
 0.0010863  0.086285   0.016157   2.         0.         0.         0.         0.002      3.         2.        
 0.0011292  0.12917    0.033892   2.         0.         0.         0.         0.002      3.         2.        
 0.0011721  0.17206    0.056499   2.         0.         0.         0.         0.002      3.         2.        
 0.0012437  0.24365    0.10245    2.         0.         0.         0.         0.002      3.         2.        
 0.0013152  0.31524    0.15619    2.         0.         0.         0.         0.002      3.         2.        
 0.0014335  0.4335     0.25576    2.         0.         0.         0.         0.002      3.         2.        
 0.0015518  0.55176    0.36386    2.         0.         0.         0.         0.002      3.         2.        
 0.0017567  0.75674    0.56064    2.         0.         0.         0.         0.002      3.         2.        
 0.002      1.         0.80095    2.         2.         2.         0.         0.005      3.         2.        
 0.0021429  1.         0.90571    2.         0.         0.         1.         0.005      0.         0.        
 0.0022461  1.         0.94439    2.         0.         0.         0.         0.005      1.         1.        
 0.0024105  1.         0.97679    2.         0.         0.         0.         0.005      2.         2.        
 0.0025749  1.         0.99031    2.         0.         0.         0.         0.005      3.         2.        
 0.0028389  1.         0.99802    2.         0.         0.         0.         0.005      3.         2.        
 0.0031029  1.         0.99959    2.         0.         0.         0.         0.005      3.         2.        
 0.0035857  1.         1.         2.         0.         0.         0.         0.005      3.         2.        
 0.0042993  1.         0.99999    2.         0.         0.         0.         0.005      3.         2.        
 0.005      1.         1.         2.         2.         2.         0.         0.01       3.         2.        
 0.0054286  0.91429    0.95566    2.         0.         0.         1.         0.01       0.         0.        
 0.0062381  0.75238    0.79191    2.         0.         0.         0.         0.01       1.         1.        
 0.0068115  0.6377     0.67778    2.         0.         0.         0.         0.01       2.         2.        
 0.0073849  0.52302    0.563      2.         0.         0.         0.         0.01       3.         2.        
 0.0089618  0.20764    0.24765    2.         0.         0.         0.         0.01       3.         2.        
 0.01       399.96p    0.039996   2.         2.         2.         0.         0.         3.         2.        
 0.010022   358.9p     0.03589    2.         0.         0.         2.         0.         0.         0.        
 0.010043   322.05p    0.032205   2.         0.         0.         0.         0.         1.         1.        
 0.010101   241.03p    0.024103   2.         0.         0.         0.         0.         2.         2.        
 0.010158   180.4p     0.01804    2.         0.         0.         0.         0.         3.         2.        
 0.010248   114.45p    0.011445   2.         0.         0.         0.         0.         3.         2.        
 0.010337   72.608p    0.0072608  2.         0.         0.         0.         0.         3.         2.        
 0.010427   46.064p    0.0046064  2.         0.         0.         0.         0.         3.         2.        
 0.010516   29.224p    0.0029224  2.         0.         0.         0.         0.         3.         2.        
 0.010606   18.541p    0.0018541  2.         0.         0.         0.         0.         3.         2.        
 0.010695   11.763p    0.0011763  2.         0.         0.         0.         0.         3.         2.        
 0.010785   7.462p     746.25u    2.         0.         0.         0.         0.         3.         2.        
 0.010874   4.734p     473.44u    2.         0.         0.         0.         0.         3.         2.        
 0.010964   3.004p     300.36u    2.         0.         0.         0.         0.         3.         2.        
 0.011053   1.906p     190.55u    2.         0.         0.         0.         0.         3.         2.        
 0.011143   1.209p     120.89u    2.         0.         0.         0.         0.         3.         2.        
 0.011232   767.f      76.697u    2.         0.         0.         0.         0.         3.         2.        
 0.011321   487.f      48.658u    2.         0.         0.         0.         0.         3.         2.        
 0.011411   309.f      30.87u     2.         0.         0.         0.         0.         3.         2.        
 0.0115     196.f      19.585u    2.         0.         0.         0.         0.         3.         2.        
 0.01159    124.f      12.425u    2.         0.         0.         0.         0.         3.         2.        
 0.011679   79.f       7.8827u    2.         0.         0.         0.         0.         3.         2.        
 0.011769   50.f       5.001u     2.         0.         0.         0.         0.         3.         2.        
 0.011913   23.f       2.3479u    2.         0.         0.         0.         0.         3.         2.        
 0.012058   11.f       1.1023u    2.         0.         0.         0.         0.         3.         2.        
 0.012272   3.f        332.39n    2.         0.         0.         0.         0.         3.         2.        
 0.012487   1.f        100.23n    2.         0.         0.         0.         0.         3.         2.        
 0.012845   0.         5.5866n    2.         0.         0.         0.         0.         3.         2.        
 0.013202   0.         311.39p    2.         0.         0.         0.         0.         3.         2.        
 0.013958   0.        -95.76p     2.         0.         0.         0.         0.         3.         2.        
 0.015166   0.         48.131p    2.         0.         0.         0.         0.         3.         2.        
 0.02       0.        -40.774p    2.         0.         0.         0.         0.         3.         2.        
Gnucap   System status
iterations: op=0, dc=0, tran=291, fourier=0, total=745
transient timesteps: accepted=141, rejected=15, total=156
nodes: user=2, subckt=0, model=0, total=2
dctran density=100.0%, ac density=100.0%
