rca3040 ckt - rca 3040 wideband amplifier 
#           v(1)       v(2)       v(3)       v(5)       v(6)       v(7)      
+ v(8)       v(9)       v(10)      v(11)      v(12)      v(13)      v(14)     
+ v(15)      v(16)      v(17)      v(30)      v(31)     
 27.       -287.97p    15.       -15.       -0.82747   -0.82747   -1.6544    
+-4.1995    -5.0514     0.78468    0.78468    1.6088     0.80442    7.1653    
+ 7.1653     6.3888     6.3888    -0.028797  -0.028797  
vdb(17)
     -100.              -50.              0.                50.            100.
vdb(16)
     -100.              -50.              0.                50.            100.
        +-----------------+----------------+-----------------+----------------+
 1.Meg  |                 .                .             *   .                |
 1.5849M|                 .                .             *   .                |
 2.5119M|                 .                .             *   .                |
 3.9811M|                 .                .             *   .                |
 6.3096M|                 .                .             *   .                |
 10.Meg |                 .                .             *   .                |
 15.849M|                 .                .             *   .                |
 25.119M|                 .                .            *    .                |
 39.811M|                 .                .         *       .                |
 63.096M|                 .                .      *          .                |
 100.Meg|                 .                .  *              .                |
 158.49M|                 .              +*.                 .                |
 251.19M|                 .          +*    .                 .                |
 398.11M|                 .     +*         .                 .                |
 630.96M|              +  . *              .                 .                |
 1.G    |              +* .                .                 .                |
 1.5849G|            +*   .                .                 .                |
 2.5119G|          *      .                .                 .                |
 3.9811G|       +*        .                .                 .                |
 6.3096G|    *            .                .                 .                |
 10.G   |*                .                .                 .                |
        +-----------------+----------------+-----------------+----------------+
v(17) -20.              -10.              0.                10.             20.
v(16) -20.              -10.              0.                10.             20.
        +-----------------+----------------+-----------------+----------------+
-0.2    |                 .                +                 .      *         |
-0.18   |                 .                +                 .      *         |
-0.16   |                 .                +                 .      *         |
-0.14   |                 .                +                 .      *         |
-0.12   |                 .                +                 .     *          |
-0.1    |                 .                +                 .     *          |
-0.08   |                 .                +                 .    *           |
-0.06   |                 .                .+                .  *             |
-0.04   |                 .                .   +             *                |
-0.02   |                 .                .      +       *  .                |
 0.     |                 .                .          *      .                |
 0.02   |                 .                .      *       +  .                |
 0.04   |                 .                .   *             +                |
 0.06   |                 .                .*                .  +             |
 0.08   |                 .                *                 .    +           |
 0.1    |                 .                *                 .     +          |
 0.12   |                 .                *                 .     +          |
 0.14   |                 .                *                 .      +         |
 0.16   |                 .                *                 .      +         |
 0.18   |                 .                *                 .      +         |
 0.2    |                 .                *                 .      +         |
        +-----------------+----------------+-----------------+----------------+
#Time       v(17)      v(16)     
 0.         6.3888     6.3888    
 500.p      6.3888     6.3888    
 5.45n      5.9748     6.7997    
 6.n        5.872      6.9011    
 6.55n      5.7462     7.0253    
 7.1n       5.595      7.1736    
 11.n       4.2263     8.5382    
 13.786n    3.3986     9.4032    
 16.571n    3.3816     9.453     
 19.357n    4.342      8.4569    
 23.735n    6.5383     6.2173    
 28.112n    7.4225     5.3447    
 32.49n     6.4134     6.3476    
 36.867n    5.5712     7.2244    
 41.245n    6.3323     6.4594    
 45.622n    7.4158     5.346     
 47.811n    7.3987     5.3776    
 50.n       6.7971     5.9589    
v(17)  2.                4.               6.                8.              10.
v(16)  2.                4.               6.                8.              10.
        +-----------------+----------------+-----------------+----------------+
 0.     |                 .                .  *              .                |
 2.n    |                 .                .  *              .                |
 4.n    |                 .                .  *+             .                |
 6.n    |                 .                *      +          .                |
 8.n    |                 .           *    .           +     .                |
 10.n   |                 .    *           .                 .+               |
 12.n   |              *  .                .                 .       +        |
 14.n   |          *      .                .                 .            +   |
 16.n   |         *       .                .                 .             +  |
 18.n   |              *  .                .                 .        +       |
 20.n   |                 .     *          .                 +                |
 22.n   |                 .               *.      +          .                |
 24.n   |                 .              + .       *         .                |
 26.n   |                 .          +     .            *    .                |
 28.n   |                 .          +     .            *    .                |
 30.n   |                 .               +.      *          .                |
 32.n   |                 .                *      +          .                |
 34.n   |                 .         *      .            +    .                |
 36.n   |                 .       *        .               + .                |
 38.n   |                 .         *      .             +   .                |
 40.n   |                 .               *.       +         .                |
 42.n   |                 .                +      *          .                |
 44.n   |                 .         +      .             *   .                |
 46.n   |                 .      +         .                *.                |
 48.n   |                 .        +       .              *  .                |
 50.n   |                 .              + .        *        .                |
        +-----------------+----------------+-----------------+----------------+
Gnucap   System status
iterations: op=9, dc=146, tran=160, fourier=0, total=493
transient timesteps: accepted=50, rejected=2, total=52
nodes: user=18, subckt=0, model=11, total=29
dctran density=62.0%, ac density=62.0%
*...*.......**********...*.***
.*..............*...*.......*.
..*.............0**.0.......*.
...*..........*.000.0**.....0.
*...*.......*.0.000.000.....0.
.....*......*.0.000*000.....0.
......*.....0*0.00**000.....0.
.......*....000*000**00.....0.
........*...0**00000000*....0.
.........*..00**00000000*...0.
..........*.00000000000*0*..*.
...........*000000000000*0*.*.
*...**000000*000000*0000000.0.
*.....*0*0000**000*0000*000.0.
*..*0000**000***00000**0000.0.
*......*0*0000**0000*000*00.0.
**00000000000000*0000000000.*.
*.*00000000000000*000000000.*.
*.*000*000000*0000**0000000.*.
*....***0000*00000***000000.*.
**00000*0000000*000**000000.*.
*..*0000000000*000000*00000*0.
...*0000000000*0000000*0000*0.
........*0*00*000000000*000**.
.........*0*000*00000000*00**.
*.........*00000000000000*00*.
...........*00000000000000*0**
*....................****00*00
***0000000**0000*****00****0*0
*.........................*00*
