* p type inv amp w/bti 
.model my_rcdmodel rcd ( tnom=NA( 27.) anneal=NA(1) rem=NA( 1.Meg) Re=NA( 1.) Rc=NA( 1.))
.model bti_ptm_approx bti_sum ( params=((1.28936788433,-0.0*s,13.433303380408852,43.576925888911987*s,1.4509831704140836),(0.0425895446518,-0.0*s,4.1230027350333067,44.168622555330224*s,0.35639368027120355),(0.00986204739979,-0.046730726782108274*s,6.9322844619511379,34.467824008855281*s,19.76034507753667),(323556.834838,-0.74091304338940822*s,7.9999074744048002,50.0*s,25.0),(65734.7534834,-0.0*s,7.6851098109742111,33.944029750879885*s,20.802215970322095),(25.5541996901,-46.321386556453803*s,16.844440862184946,11.976323270474861*s,23.296371309229073)) tnom=NA( 27.) rcd_number=6 anneal=NA(1) rcd_model_name=my_rcdmodel weight=1.23)
.model bti_ptm_approx_symm bti_sum ( params=((1.28936788433,-0.0*s,13.433303380408852,43.576925888911987*s,1.4509831704140836),(0.0425895446518,-0.0*s,4.1230027350333067,44.168622555330224*s,0.35639368027120355),(0.00986204739979,-0.046730726782108274*s,6.9322844619511379,34.467824008855281*s,19.76034507753667),(323556.834838,-0.74091304338940822*s,7.9999074744048002,50.0*s,25.0),(65734.7534834,-0.0*s,7.6851098109742111,33.944029750879885*s,20.802215970322095),(25.5541996901,-46.321386556453803*s,16.844440862184946,11.976323270474861*s,23.296371309229073)) tnom=NA( 27.) rcd_number=12 anneal=NA(1) rcd_model_name=my_rcdmodel weight=1.23)
#           ids(MPregl) ids(MPsymm) dvth(MPregl) dvth(MPsymm) v(ng)      v(nout)   
 1.         4.694E-15  4.694E-15  0.         0.         4.         0.        
 1.01       6.02E-15   6.02E-15   0.         0.         3.99       0.        
 1.02       7.722E-15  7.722E-15  0.         0.         3.98       0.        
 1.03       9.904E-15  9.904E-15  0.         0.         3.97       0.        
 1.04       12.7E-15   12.7E-15   0.         0.         3.96       0.        
 1.05       16.29E-15  16.29E-15  0.         0.         3.95       0.        
 1.06       20.89E-15  20.89E-15  0.         0.         3.94       0.        
 1.07       26.79E-15  26.79E-15  0.         0.         3.93       0.        
 1.08       34.36E-15  34.36E-15  0.         0.         3.92       0.        
 1.09       44.05E-15  44.05E-15  0.         0.         3.91       0.        
 1.1        56.48E-15  56.48E-15  0.         0.         3.9        0.        
 1.11       72.41E-15  72.41E-15  0.         0.         3.89       0.        
 1.12       92.82E-15  92.82E-15  0.         0.         3.88       0.        
 1.13       119.E-15   119.E-15   0.         0.         3.87       0.        
 1.14       152.5E-15  152.5E-15  0.         0.         3.86       0.        
 1.15       195.4E-15  195.4E-15  0.         0.         3.85       0.        
 1.16       250.4E-15  250.4E-15  0.         0.         3.84       0.        
 1.17       320.8E-15  320.8E-15  0.         0.         3.83       0.        
 1.18       410.8E-15  410.8E-15  0.         0.         3.82       0.        
 1.19       526.1E-15  526.1E-15  0.         0.         3.81       0.        
 1.2        673.5E-15  673.5E-15  0.         0.         3.8        0.        
 1.21       862.1E-15  862.1E-15  0.         0.         3.79       0.        
 1.22       1.103E-12  1.103E-12  0.         0.         3.78       0.        
 1.23       1.411E-12  1.411E-12  0.         0.         3.77       0.        
 1.24       1.804E-12  1.804E-12  0.         0.         3.76       0.        
 1.25       2.306E-12  2.306E-12  0.         0.         3.75       0.        
 1.26       2.946E-12  2.946E-12  0.         0.         3.74       0.        
 1.27       3.761E-12  3.761E-12  0.         0.         3.73       0.        
 1.28       4.8E-12    4.8E-12    0.         0.         3.72       0.        
 1.29       6.122E-12  6.122E-12  0.         0.         3.71       0.        
 1.3        7.801E-12  7.801E-12  0.         0.         3.7        0.        
 1.31       9.934E-12  9.934E-12  0.         0.         3.69       0.        
 1.32       12.64E-12  12.64E-12  0.         0.         3.68       0.        
 1.33       16.07E-12  16.07E-12  0.         0.         3.67       0.        
 1.34       20.4E-12   20.4E-12   0.         0.         3.66       1.E-15    
 1.35       25.88E-12  25.88E-12  0.         0.         3.65       1.E-15    
 1.36       32.79E-12  32.79E-12  0.         0.         3.64       1.E-15    
 1.37       41.5E-12   41.5E-12   0.         0.         3.63       1.E-15    
 1.38       52.44E-12  52.44E-12  0.         0.         3.62       1.E-15    
 1.39       66.18E-12  66.18E-12  0.         0.         3.61       1.E-15    
 1.4        83.39E-12  83.39E-12  0.         0.         3.6        2.E-15    
 1.41       104.9E-12  104.9E-12  0.         0.         3.59       2.E-15    
 1.42       131.8E-12  131.8E-12  0.         0.         3.58       3.E-15    
 1.43       165.4E-12  165.4E-12  0.         0.         3.57       3.E-15    
 1.44       207.1E-12  207.1E-12  0.         0.         3.56       4.E-15    
 1.45       259.E-12   259.E-12   0.         0.         3.55       5.E-15    
 1.46       323.4E-12  323.4E-12  0.         0.         3.54       7.E-15    
 1.47       403.1E-12  403.1E-12  0.         0.         3.53       8.E-15    
 1.48       501.8E-12  501.8E-12  0.         0.         3.52       10.E-15   
 1.49       623.8E-12  623.8E-12  0.         0.         3.51       13.E-15   
 1.5        774.2E-12  774.2E-12  0.         0.         3.5        16.E-15   
 1.51       959.3E-12  959.3E-12  0.         0.         3.49       19.E-15   
 1.52       1.1866E-9  1.1866E-9  0.         0.         3.48       24.E-15   
 1.53       1.4649E-9  1.4649E-9  0.         0.         3.47       29.E-15   
 1.54       1.8044E-9  1.8044E-9  0.         0.         3.46       36.E-15   
 1.55       2.2167E-9  2.2167E-9  0.         0.         3.45       44.E-15   
 1.56       2.7151E-9  2.7151E-9  0.         0.         3.44       54.E-15   
 1.57       3.3142E-9  3.3142E-9  0.         0.         3.43       66.E-15   
 1.58       4.0297E-9  4.0297E-9  0.         0.         3.42       81.E-15   
 1.59       4.8784E-9  4.8784E-9  0.         0.         3.41       98.E-15   
 1.6        5.8776E-9  5.8776E-9  0.         0.         3.4        118.E-15  
 1.61       7.045E-9   7.045E-9   0.         0.         3.39       141.E-15  
 1.62       8.3979E-9  8.3979E-9  0.         0.         3.38       168.E-15  
 1.63       9.9531E-9  9.9531E-9  0.         0.         3.37       199.E-15  
 1.64       11.726E-9  11.726E-9  0.         0.         3.36       235.E-15  
 1.65       13.731E-9  13.731E-9  0.         0.         3.35       275.E-15  
 1.66       15.981E-9  15.981E-9  0.         0.         3.34       320.E-15  
 1.67       18.487E-9  18.487E-9  0.         0.         3.33       370.E-15  
 1.68       21.256E-9  21.256E-9  0.         0.         3.32       425.E-15  
 1.69       24.297E-9  24.297E-9  0.         0.         3.31       486.E-15  
 1.7        27.613E-9  27.613E-9  0.         0.         3.3        552.E-15  
 1.71       31.207E-9  31.207E-9  0.         0.         3.29       624.E-15  
 1.72       35.082E-9  35.082E-9  0.         0.         3.28       702.E-15  
 1.73       39.236E-9  39.236E-9  0.         0.         3.27       785.E-15  
 1.74       43.669E-9  43.669E-9  0.         0.         3.26       873.E-15  
 1.75       48.378E-9  48.378E-9  0.         0.         3.25       968.E-15  
 1.76       53.36E-9   53.36E-9   0.         0.         3.24       1.067E-12 
 1.77       58.612E-9  58.612E-9  0.         0.         3.23       1.172E-12 
 1.78       64.13E-9   64.13E-9   0.         0.         3.22       1.283E-12 
 1.79       69.91E-9   69.91E-9   0.         0.         3.21       1.398E-12 
 1.8        75.947E-9  75.947E-9  0.         0.         3.2        1.519E-12 
 1.81       82.237E-9  82.237E-9  0.         0.         3.19       1.645E-12 
 1.82       88.776E-9  88.776E-9  0.         0.         3.18       1.776E-12 
 1.83       95.561E-9  95.561E-9  0.         0.         3.17       1.911E-12 
 1.84       102.59E-9  102.59E-9  0.         0.         3.16       2.052E-12 
 1.85       109.85E-9  109.85E-9  0.         0.         3.15       2.197E-12 
 1.86       117.35E-9  117.35E-9  0.         0.         3.14       2.347E-12 
 1.87       125.08E-9  125.08E-9  0.         0.         3.13       2.502E-12 
 1.88       133.03E-9  133.03E-9  0.         0.         3.12       2.661E-12 
 1.89       141.22E-9  141.22E-9  0.         0.         3.11       2.824E-12 
 1.9        149.62E-9  149.62E-9  0.         0.         3.1        2.993E-12 
 1.91       158.25E-9  158.25E-9  0.         0.         3.09       3.165E-12 
 1.92       167.1E-9   167.1E-9   0.         0.         3.08       3.342E-12 
 1.93       176.17E-9  176.17E-9  0.         0.         3.07       3.523E-12 
 1.94       185.45E-9  185.45E-9  0.         0.         3.06       3.709E-12 
 1.95       194.95E-9  194.95E-9  0.         0.         3.05       3.899E-12 
 1.96       204.66E-9  204.66E-9  0.         0.         3.04       4.093E-12 
 1.97       214.59E-9  214.59E-9  0.         0.         3.03       4.292E-12 
 1.98       224.72E-9  224.72E-9  0.         0.         3.02       4.495E-12 
 1.99       235.07E-9  235.07E-9  0.         0.         3.01       4.701E-12 
 2.         245.62E-9  245.62E-9  0.         0.         3.         4.913E-12 
 2.01       256.39E-9  256.39E-9  0.         0.         2.99       5.128E-12 
 2.02       267.36E-9  267.36E-9  0.         0.         2.98       5.347E-12 
 2.03       278.55E-9  278.55E-9  0.         0.         2.97       5.571E-12 
 2.04       289.93E-9  289.93E-9  0.         0.         2.96       5.799E-12 
 2.05       301.53E-9  301.53E-9  0.         0.         2.95       6.031E-12 
 2.06       313.33E-9  313.33E-9  0.         0.         2.94       6.267E-12 
 2.07       325.33E-9  325.33E-9  0.         0.         2.93       6.507E-12 
 2.08       337.55E-9  337.55E-9  0.         0.         2.92       6.751E-12 
 2.09       349.96E-9  349.96E-9  0.         0.         2.91       6.999E-12 
 2.1        362.58E-9  362.58E-9  0.         0.         2.9        7.252E-12 
 2.11       375.4E-9   375.4E-9   0.         0.         2.89       7.508E-12 
 2.12       388.42E-9  388.42E-9  0.         0.         2.88       7.769E-12 
 2.13       401.65E-9  401.65E-9  0.         0.         2.87       8.033E-12 
 2.14       415.08E-9  415.08E-9  0.         0.         2.86       8.302E-12 
 2.15       428.7E-9   428.7E-9   0.         0.         2.85       8.574E-12 
 2.16       442.53E-9  442.53E-9  0.         0.         2.84       8.851E-12 
 2.17       456.56E-9  456.56E-9  0.         0.         2.83       9.131E-12 
 2.18       470.79E-9  470.79E-9  0.         0.         2.82       9.416E-12 
 2.19       485.21E-9  485.21E-9  0.         0.         2.81       9.704E-12 
 2.2        499.84E-9  499.84E-9  0.         0.         2.8        9.997E-12 
 2.21       514.66E-9  514.66E-9  0.         0.         2.79       10.29E-12 
 2.22       529.68E-9  529.68E-9  0.         0.         2.78       10.59E-12 
 2.23       544.9E-9   544.9E-9   0.         0.         2.77       10.9E-12  
 2.24       560.31E-9  560.31E-9  0.         0.         2.76       11.21E-12 
 2.25       575.92E-9  575.92E-9  0.         0.         2.75       11.52E-12 
 2.26       591.72E-9  591.72E-9  0.         0.         2.74       11.84E-12 
 2.27       607.72E-9  607.72E-9  0.         0.         2.73       12.15E-12 
 2.28       623.91E-9  623.91E-9  0.         0.         2.72       12.48E-12 
 2.29       640.3E-9   640.3E-9   0.         0.         2.71       12.81E-12 
 2.3        656.88E-9  656.88E-9  0.         0.         2.7        13.14E-12 
 2.31       673.64E-9  673.64E-9  0.         0.         2.69       13.47E-12 
 2.32       690.61E-9  690.61E-9  0.         0.         2.68       13.81E-12 
 2.33       707.76E-9  707.76E-9  0.         0.         2.67       14.15E-12 
 2.34       725.1E-9   725.1E-9   0.         0.         2.66       14.5E-12  
 2.35       742.63E-9  742.63E-9  0.         0.         2.65       14.85E-12 
 2.36       760.35E-9  760.35E-9  0.         0.         2.64       15.21E-12 
 2.37       778.26E-9  778.26E-9  0.         0.         2.63       15.56E-12 
 2.38       796.36E-9  796.36E-9  0.         0.         2.62       15.93E-12 
 2.39       814.65E-9  814.65E-9  0.         0.         2.61       16.29E-12 
 2.4        833.12E-9  833.12E-9  0.         0.         2.6        16.66E-12 
 2.41       851.77E-9  851.77E-9  0.         0.         2.59       17.04E-12 
 2.42       870.62E-9  870.62E-9  0.         0.         2.58       17.41E-12 
 2.43       889.65E-9  889.65E-9  0.         0.         2.57       17.79E-12 
 2.44       908.86E-9  908.86E-9  0.         0.         2.56       18.18E-12 
 2.45       928.26E-9  928.26E-9  0.         0.         2.55       18.57E-12 
 2.46       947.84E-9  947.84E-9  0.         0.         2.54       18.96E-12 
 2.47       967.6E-9   967.6E-9   0.         0.         2.53       19.35E-12 
 2.48       987.54E-9  987.54E-9  0.         0.         2.52       19.75E-12 
 2.49       1.0077E-6  1.0077E-6  0.         0.         2.51       20.15E-12 
 2.5        1.028E-6   1.028E-6   0.         0.         2.5        20.56E-12 
 2.51       1.0485E-6  1.0485E-6  0.         0.         2.49       20.97E-12 
 2.52       1.0691E-6  1.0691E-6  0.         0.         2.48       21.38E-12 
 2.53       1.09E-6    1.09E-6    0.         0.         2.47       21.8E-12  
 2.54       1.111E-6   1.111E-6   0.         0.         2.46       22.22E-12 
 2.55       1.1322E-6  1.1322E-6  0.         0.         2.45       22.64E-12 
 2.56       1.1536E-6  1.1536E-6  0.         0.         2.44       23.07E-12 
 2.57       1.1751E-6  1.1751E-6  0.         0.         2.43       23.5E-12  
 2.58       1.1969E-6  1.1969E-6  0.         0.         2.42       23.94E-12 
 2.59       1.2188E-6  1.2188E-6  0.         0.         2.41       24.38E-12 
 2.6        1.2408E-6  1.2408E-6  0.         0.         2.4        24.82E-12 
 2.61       1.2631E-6  1.2631E-6  0.         0.         2.39       25.26E-12 
 2.62       1.2855E-6  1.2855E-6  0.         0.         2.38       25.71E-12 
 2.63       1.3081E-6  1.3081E-6  0.         0.         2.37       26.16E-12 
 2.64       1.3309E-6  1.3309E-6  0.         0.         2.36       26.62E-12 
 2.65       1.3539E-6  1.3539E-6  0.         0.         2.35       27.08E-12 
 2.66       1.377E-6   1.377E-6   0.         0.         2.34       27.54E-12 
 2.67       1.4003E-6  1.4003E-6  0.         0.         2.33       28.01E-12 
 2.68       1.4237E-6  1.4237E-6  0.         0.         2.32       28.48E-12 
 2.69       1.4474E-6  1.4474E-6  0.         0.         2.31       28.95E-12 
 2.7        1.4712E-6  1.4712E-6  0.         0.         2.3        29.42E-12 
 2.71       1.4951E-6  1.4951E-6  0.         0.         2.29       29.9E-12  
 2.72       1.5193E-6  1.5193E-6  0.         0.         2.28       30.39E-12 
 2.73       1.5436E-6  1.5436E-6  0.         0.         2.27       30.87E-12 
 2.74       1.568E-6   1.568E-6   0.         0.         2.26       31.36E-12 
 2.75       1.5927E-6  1.5927E-6  0.         0.         2.25       31.85E-12 
 2.76       1.6175E-6  1.6175E-6  0.         0.         2.24       32.35E-12 
 2.77       1.6424E-6  1.6424E-6  0.         0.         2.23       32.85E-12 
 2.78       1.6676E-6  1.6676E-6  0.         0.         2.22       33.35E-12 
 2.79       1.6929E-6  1.6929E-6  0.         0.         2.21       33.86E-12 
 2.8        1.7183E-6  1.7183E-6  0.         0.         2.2        34.37E-12 
 2.81       1.744E-6   1.744E-6   0.         0.         2.19       34.88E-12 
 2.82       1.7698E-6  1.7698E-6  0.         0.         2.18       35.4E-12  
 2.83       1.7957E-6  1.7957E-6  0.         0.         2.17       35.91E-12 
 2.84       1.8218E-6  1.8218E-6  0.         0.         2.16       36.44E-12 
 2.85       1.8481E-6  1.8481E-6  0.         0.         2.15       36.96E-12 
 2.86       1.8745E-6  1.8745E-6  0.         0.         2.14       37.49E-12 
 2.87       1.9011E-6  1.9011E-6  0.         0.         2.13       38.02E-12 
 2.88       1.9279E-6  1.9279E-6  0.         0.         2.12       38.56E-12 
 2.89       1.9548E-6  1.9548E-6  0.         0.         2.11       39.09E-12 
 2.9        1.9818E-6  1.9818E-6  0.         0.         2.1        39.64E-12 
 2.91       2.0091E-6  2.0091E-6  0.         0.         2.09       40.18E-12 
 2.92       2.0364E-6  2.0364E-6  0.         0.         2.08       40.73E-12 
 2.93       2.064E-6   2.064E-6   0.         0.         2.07       41.28E-12 
 2.94       2.0917E-6  2.0917E-6  0.         0.         2.06       41.83E-12 
 2.95       2.1195E-6  2.1195E-6  0.         0.         2.05       42.39E-12 
 2.96       2.1475E-6  2.1475E-6  0.         0.         2.04       42.95E-12 
 2.97       2.1757E-6  2.1757E-6  0.         0.         2.03       43.51E-12 
 2.98       2.204E-6   2.204E-6   0.         0.         2.02       44.08E-12 
 2.99       2.2325E-6  2.2325E-6  0.         0.         2.01       44.65E-12 
 3.         2.2611E-6  2.2611E-6  0.         0.         2.         45.22E-12 
 3.01       2.2899E-6  2.2899E-6  0.         0.         1.99       45.8E-12  
 3.02       2.3188E-6  2.3188E-6  0.         0.         1.98       46.38E-12 
 3.03       2.3479E-6  2.3479E-6  0.         0.         1.97       46.96E-12 
 3.04       2.3771E-6  2.3771E-6  0.         0.         1.96       47.54E-12 
 3.05       2.4065E-6  2.4065E-6  0.         0.         1.95       48.13E-12 
 3.06       2.4361E-6  2.4361E-6  0.         0.         1.94       48.72E-12 
 3.07       2.4657E-6  2.4657E-6  0.         0.         1.93       49.32E-12 
 3.08       2.4956E-6  2.4956E-6  0.         0.         1.92       49.91E-12 
 3.09       2.5256E-6  2.5256E-6  0.         0.         1.91       50.51E-12 
 3.1        2.5557E-6  2.5557E-6  0.         0.         1.9        51.11E-12 
 3.11       2.586E-6   2.586E-6   0.         0.         1.89       51.72E-12 
 3.12       2.6164E-6  2.6164E-6  0.         0.         1.88       52.33E-12 
 3.13       2.647E-6   2.647E-6   0.         0.         1.87       52.94E-12 
 3.14       2.6777E-6  2.6777E-6  0.         0.         1.86       53.55E-12 
 3.15       2.7086E-6  2.7086E-6  0.         0.         1.85       54.17E-12 
 3.16       2.7396E-6  2.7396E-6  0.         0.         1.84       54.79E-12 
 3.17       2.7707E-6  2.7707E-6  0.         0.         1.83       55.41E-12 
 3.18       2.802E-6   2.802E-6   0.         0.         1.82       56.04E-12 
 3.19       2.8335E-6  2.8335E-6  0.         0.         1.81       56.67E-12 
 3.2        2.8651E-6  2.8651E-6  0.         0.         1.8        57.3E-12  
 3.21       2.8968E-6  2.8968E-6  0.         0.         1.79       57.94E-12 
 3.22       2.9287E-6  2.9287E-6  0.         0.         1.78       58.57E-12 
 3.23       2.9607E-6  2.9607E-6  0.         0.         1.77       59.21E-12 
 3.24       2.9928E-6  2.9928E-6  0.         0.         1.76       59.86E-12 
 3.25       3.0251E-6  3.0251E-6  0.         0.         1.75       60.5E-12  
 3.26       3.0576E-6  3.0576E-6  0.         0.         1.74       61.15E-12 
 3.27       3.0901E-6  3.0901E-6  0.         0.         1.73       61.8E-12  
 3.28       3.1229E-6  3.1229E-6  0.         0.         1.72       62.46E-12 
 3.29       3.1557E-6  3.1557E-6  0.         0.         1.71       63.12E-12 
 3.3        3.1887E-6  3.1887E-6  0.         0.         1.7        63.78E-12 
 3.31       3.2219E-6  3.2219E-6  0.         0.         1.69       64.44E-12 
 3.32       3.2551E-6  3.2551E-6  0.         0.         1.68       65.1E-12  
 3.33       3.2885E-6  3.2885E-6  0.         0.         1.67       65.77E-12 
 3.34       3.3221E-6  3.3221E-6  0.         0.         1.66       66.44E-12 
 3.35       3.3558E-6  3.3558E-6  0.         0.         1.65       67.12E-12 
 3.36       3.3896E-6  3.3896E-6  0.         0.         1.64       67.79E-12 
