'c check 
v1 ( 1 0 ) pulse iv= 0. pv= 1. delay= 0. rise= 100.u fall= 100.u width= 1.K period= 1.K  AC  1.
r1 ( 1 2 )  0.1
c2 ( 2 0 )  0.1
#Time       v(1)       v(2)       timef(c2)  dtr(c2)    dt(c2)    
 0.         0.         0.         Inf        Inf        ??        
 0.001      0.99999    0.09069    0.0029224  0.0019224  6~~.~~u   
 0.002      0.99999    0.17729    0.004~     0.002~     0.001     
 0.003      0.99999    0.25564    0.005994   0.002994   0.001     
 0.004      0.99999    0.32653    0.0072686  0.0032686  0.001     
 0.005      0.99999    0.39067    0.0085876  0.0035876  0.001     
 0.006      0.99999    0.4487     0.0098846  0.0038846  0.001     
 0.007      1.         0.50121    0.011167   0.0041673  0.001     
 0.008      1.         0.54871    0.012441   0.0044407  0.001     
 0.009      1.         0.59169    0.013708   0.0047082  0.001     
 0.01       1.         0.63058    0.014972   0.0049723  0.001     
#Time       v(1)       v(2)       timef(c2)  dtr(c2)    dt(c2)    
 0.         0.         0.         Inf        Inf        ??        
 0.01       1.         0.63424    0.01464    0.0046404  0.0030713 
 0.02       1.         0.8667     0.026812   0.0068119  0.0033333 
 0.03       1.         0.95201    0.03941    0.0094101  0.005     
 0.04       1.         0.98272    0.052633   0.012633   0.005     
 0.05       1.         0.99424    0.065363   0.015363   0.01      
 0.06       1.         0.99808    0.080877   0.020877   0.01      
 0.07       1.         0.99936    0.095407   0.025407   0.01      
 0.08       1.         0.99979    0.11665    0.036648   0.01      
 0.09       1.         0.99993    0.14286    0.052858   0.01      
 0.1        1.         0.99998    0.17624    0.076235   0.01      
#Time       v(1)       v(2)       timef(c2)  dtr(c2)    dt(c2)    
 0.         0.         0.         Inf        Inf        ??        
 0.1        1.         1.         0.14017    0.040165   0.02633   
 0.2        1.         1.         0.38692    0.18692    0.066667  
 0.3        1.         1.         0.81516    0.51516    0.1       
 0.4        1.         1.         1.4949     1.0949     0.1       
 0.5        1.         1.         1.9681     1.4681     0.1       
 0.6        1.         1.         2.2805     1.6805     0.1       
 0.7        1.         1.         2.6237     1.9237     0.1       
 0.8        1.         1.         3.0021     2.2021     0.1       
 0.9        1.         1.         3.4208     2.5208     0.1       
 1.         1.         1.         3.8856     2.8856     0.1       
#Time       v(1)       v(2)       timef(c2)  dtr(c2)    dt(c2)    
 0.         0.         0.         Inf        Inf        ??        
 100.u      0.99999    0.0099009  200.u      100.u      100.u     
 116.67u    0.99999    0.01155    126.47u    9.807u     16.667u   
 126.47u    0.99999    0.012519   452.59u    326.11u    9.8069u   
 452.48u    0.99999    0.044195   0.0018305  0.001378   326.01u   
 0.0018293  0.99999    0.16731    0.0041639  0.0023346  0.0013768 
 0.0041614  0.99999    0.34123    0.007452   0.0032906  0.0023322 
 0.0064936  0.99999    0.47882    0.010428   0.0039342  0.0023322 
 0.010421   1.         0.64989    0.014893   0.0044729  0.0039269 
 0.014347   1.         0.76481    0.019877   0.0055298  0.0039269 
 0.018274   1.         0.84201    0.024422   0.0061479  0.0039269 
 0.02441    1.         0.91619    0.03166    0.0072499  0.0061358 
 0.030546   1.         0.95554    0.039625   0.0090786  0.0061358 
 0.036682   1.         0.97642    0.047184   0.010503   0.0061358 
 0.047153   1.         0.99262    0.060472   0.01332    0.010471  
 0.057623   1.         0.99769    0.07601    0.018386   0.010471  
 0.075746   1.         0.99989    0.10005    0.024302   0.018123  
 0.093869   1.         0.99999    0.13482    0.04095    0.018123  
 0.13327    1.         1.         0.20337    0.070103   0.039397  
 0.19994    1.         1.         0.46061    0.26067    0.066672  
 0.39995    1.         1.         1.619      1.2191     0.20002   
 1.         1.         1.         4.8906     3.8906     0.60005   
 2.         1.         1.         13.409     11.409     1.        
 3.         1.         1.         23.889     20.889     1.        
 4.         1.         1.         28.55      24.55      1.        
 5.         1.         1.         29.88      24.88      1.        
 6.         1.         1.         31.214     25.214     1.        
 7.         1.         1.         32.552     25.552     1.        
 8.         1.         1.         33.895     25.895     1.        
 9.         1.         1.         35.243     26.243     1.        
 10.        1.         1.         36.595     26.595     1.        
#Time       v(1)       v(2)       timef(c2)  dtr(c2)    dt(c2)    
 0.         0.         0.         Inf        Inf        ??        
 100.u      0.99999    0.0099009  200.u      100.u      100.u     
 200.u      0.99999    0.019753   101.68u    1.6842u    100.u     
 101.67u    0.99999    0.010066   102.52u    854.07n    1.6667u   
 102.52u    0.99999    0.01015    195.33u    92.806u    854.07n   
 195.32u    0.99999    0.019294   675.39u    480.07u    92.798u   
 675.3u     0.99999    0.065262   0.0014434  768.08u    479.98u   
 0.0014428  0.99999    0.13435    0.0025243  0.0010815  767.53u   
 0.0022104  0.99999    0.19834    0.0034744  0.0012641  767.53u   
 0.0034734  0.99999    0.29358    0.0048792  0.0014058  0.001263  
 0.0047364  0.99999    0.3775     0.0064054  0.001669   0.001263  
 0.0059994  0.99999    0.45145    0.0077841  0.0017847  0.001263  
 0.0072625  1.         0.51662    0.0092096  0.0019471  0.001263  
 0.009209   1.         0.60236    0.011317   0.0021079  0.0019465 
 0.011156   1.         0.6729     0.013573   0.0024175  0.0019465 
 0.013102   1.         0.73092    0.015662   0.0025603  0.0019465 
 0.015049   1.         0.77865    0.017839   0.0027907  0.0019465 
 0.016995   1.         0.81792    0.020023   0.0030277  0.0019465 
 0.02002    1.         0.86576    0.023283   0.0032635  0.0030246 
 0.023044   1.         0.90103    0.026808   0.0037639  0.0030246 
 0.026069   1.         0.92703    0.030095   0.004026   0.0030246 
 0.029094   1.         0.9462     0.033581   0.004487   0.0030246 
 0.032118   1.         0.96034    0.03711    0.0049914  0.0030246 
 0.037107   1.         0.97617    0.042657   0.0055492  0.0049891 
 0.042096   1.         0.98569    0.048785   0.0066884  0.0049891 
 0.047086   1.         0.9914     0.054512   0.0074262  0.0049891 
 0.052075   1.         0.99484    0.060886   0.0088114  0.0049891 
 0.060852   1.         0.99799    0.071464   0.010612   0.0087771 
 0.069629   1.         0.99921    0.083651   0.014022   0.0087771 
 0.083515   1.         0.99986    0.10092    0.017408   0.013886  
 0.097401   1.         0.99997    0.12386    0.026457   0.013886  
 0.12319    1.         1.         0.16303    0.039843   0.025789  
 0.16131    1.         1.         0.24865    0.08734    0.038122  
 0.24518    1.         1.         0.46203    0.21685    0.083869  
 0.43389    1.         1.         1.1542     0.72029    0.1887    
 1.         1.         1.         3.2497     2.2497     0.56611   
 2.         1.         1.         7.9253     5.9253     1.        
 3.         1.         1.         14.176     11.176     1.        
 4.         1.         1.         17.364     13.364     1.        
 5.         1.         1.         18.544     13.544     1.        
 6.         1.         1.         19.726     13.726     1.        
 7.         1.         1.         20.91      13.91      1.        
 8.         1.         1.         22.097     14.097     1.        
 9.         1.         1.         23.286     14.286     1.        
 10.        1.         1.         24.478     14.478     1.        
Gnucap   System status
iterations: op=0, dc=0, tran=165, fourier=0, total=708
transient timesteps: accepted=145, rejected=6, total=151
nodes: user=2, subckt=0, model=0, total=2
dctran density=100.0%, ac density=100.0%
