Mutual inductance test circuit 
#Freq       vm(a2)     vm(a3)     vm(a4)     vm(b2)     vm(b3)     vm(b4)     vm(c2)     vm(c3)     vm(c4)     vm(d2)     vm(d3)     vm(d4)    
 0.1        0.01599    0.014243   0.01074    0.01599    0.014237   0.010743   0.01599    0.014237   0.010743   0.01599    0.014237   0.010743  
 0.31623    0.050452   0.04494    0.033886   0.050452   0.04492    0.033897   0.050452   0.04492    0.033897   0.050452   0.04492    0.033897  
 1.         0.15613    0.13902    0.10483    0.15613    0.13896    0.10487    0.15613    0.13896    0.10487    0.15613    0.13896    0.10487   
 3.1623     0.41414    0.36723    0.27718    0.41416    0.36707    0.27727    0.41416    0.36708    0.27727    0.41416    0.36707    0.27727   
 10.        0.66716    0.56869    0.43293    0.66722    0.56843    0.43312    0.66722    0.56843    0.43312    0.66722    0.56843    0.43312   
 31.623     0.80547    0.51641    0.41563    0.80559    0.51598    0.41592    0.80559    0.51598    0.41592    0.80559    0.51598    0.41592   
 100.       0.95226    0.26207    0.23102    0.9523     0.26169    0.23126    0.9523     0.26169    0.23126    0.9523     0.26169    0.23126   
 316.23     0.99437    0.090258   0.081619   0.99437    0.090111   0.081712   0.99437    0.090111   0.081712   0.99437    0.090111   0.081712  
 1.K        0.99943    0.028812   0.026134   0.99943    0.028765   0.026164   0.99943    0.028765   0.026164   0.99943    0.028765   0.026164  
#Freq       vp(a2)     vp(a3)     vp(a4)     vp(b2)     vp(b3)     vp(b4)     vp(c2)     vp(c3)     vp(c4)     vp(d2)     vp(d3)     vp(d4)    
 0.1        88.769     88.594     88.619     88.766     88.594     88.619     88.77      88.594     88.619     88.766     88.594     88.619    
 0.31623    86.115     85.561     85.639     86.114     85.561     85.64      86.115     85.561     85.64      86.114     85.561     85.64     
 1.         77.898     76.148     76.395     77.899     76.147     76.398     77.9       76.147     76.398     77.899     76.147     76.398    
 3.1623     56.289     50.768     51.547     56.291     50.765     51.553     56.291     50.765     51.553     56.291     50.765     51.553    
 10.        28.595     11.584     13.931     28.598     11.57      13.943     28.598     11.57      13.943     28.598     11.57      13.943    
 31.623     17.25     -27.001    -21.942     17.249    -27.036    -21.92      17.249    -27.036    -21.92      17.249    -27.036    -21.92     
 100.       9.2081    -63.03     -59.188     9.204     -63.056    -59.173     9.204     -63.056    -59.173     9.204     -63.056    -59.173    
 316.23     3.2345    -81.005    -79.591     3.2328    -81.015    -79.586     3.2328    -81.015    -79.586     3.2328    -81.015    -79.586    
 1.K        1.0349    -87.139    -86.684     1.0343    -87.142    -86.682     1.0343    -87.142    -86.682     1.0343    -87.142    -86.682    
#Time       v(a2)      v(a3)      v(a4)      v(b2)      v(b3)      v(b4)      v(c2)      v(c3)      v(c4)      v(d2)      v(d3)      v(d4)     
 0.         0.         0.         0.         0.         0.         0.         0.         0.         0.         0.         0.         0.        
 0.001      0.         0.         0.         0.         0.         0.         0.         0.         0.         0.         0.         0.        
 0.002      0.         0.         0.         0.         0.         0.         0.         0.         0.         0.         0.         0.        
 0.003      0.47386    0.040874   0.036496   0.47387    0.040811   0.036536   0.47387    0.040811   0.036536   0.47387    0.040811   0.036536  
 0.004      0.90322    0.14819    0.13039    0.90326    0.14798    0.13052    0.90326    0.14798    0.13052    0.90326    0.14798    0.13052   
 0.005      0.82366    0.26248    0.22686    0.82373    0.26213    0.22706    0.82373    0.26213    0.22706    0.82373    0.26213    0.22706   
 0.006      0.76054    0.34426    0.29188    0.76063    0.34385    0.29212    0.76063    0.34385    0.29212    0.76063    0.34385    0.29212   
 0.007      0.23571    0.36058    0.2989     0.23593    0.36045    0.2982     0.23593    0.36046    0.2982     0.23593    0.36045    0.2982    
 0.008     -0.23533    0.29265    0.23151   -0.23518    0.29264    0.23097   -0.23518    0.29264    0.23097   -0.23518    0.29264    0.23097   
 0.009     -0.19074    0.20276    0.15314   -0.19048    0.20432    0.14993   -0.19048    0.20432    0.14993   -0.19048    0.20432    0.14993   
 0.01      -0.15719    0.13704    0.094862  -0.15702    0.13836    0.092443  -0.15702    0.13836    0.092443  -0.15702    0.13836    0.092443  
Gnucap   System status
iterations: op=0, dc=0, tran=392, fourier=0, total=543
transient timesteps: accepted=127, rejected=6, total=133
nodes: user=16, subckt=15, model=6, total=37
dctran density=42.4%, ac density=42.4%
