Mutual inductance test circuit 
M12= 0.49862
(M12 / L2)= 0.63117
(M12 / L1)= 0.8904
v1 ( 1 0 ) pulse iv= 0. pv= 1. delay= 0.002 rise= 0.002 fall= 0.002 width= 0.002 period= 0.01  AC  1.
r1a ( 1 2 ) Rsource
k1 ( l1a l1b ) K12
l1a ( 2 0 ) L1
l1b ( 3 0 ) L2
r1b ( 3 0 ) Rload
v2 ( 4 0 ) pulse iv= 0. pv= 1. delay= 0.002 rise= 0.002 fall= 0.002 width= 0.002 period= 0.01  AC  1.
r2a ( 4 5 ) Rsource
l2a ( 5 6 ) L1-M12
l2b ( 6 0 ) M12
l2c ( 6 7 ) L2-M12
r2b ( 7 0 ) Rload
v3 ( 8 0 ) pulse iv= 0. pv= 1. delay= 0.002 rise= 0.002 fall= 0.002 width= 0.002 period= 0.01  AC  1.
r3a ( 8 9 ) Rsource
l3a ( 10 0 ) L1
l3b ( 11 0 ) L2
e3a ( 9 10 11 0 ) M12/L2
e3b ( 12 11 10 0 ) M12/L1
r3b ( 12 0 ) Rload
#Freq       v(2)       v(3)       v(5)       v(7)       v(9)       v(12)     
 0.1        0.01599    0.014244   0.01599    0.014238   0.01599    0.014238  
 0.31623    0.050473   0.044959   0.050473   0.044939   0.050473   0.044939  
 1.         0.15675    0.13958    0.15675    0.13951    0.15675    0.13951   
 3.1623     0.42608    0.37797    0.4261     0.37781    0.4261     0.37781   
 10.        0.71644    0.61303    0.71655    0.61278    0.71655    0.61278   
 31.623     0.85509    0.56179    0.85529    0.56137    0.85529    0.56137   
 100.       0.96752    0.28135    0.9676     0.28096    0.9676     0.28096   
 316.23     0.99627    0.096351   0.99628    0.096198   0.99628    0.096198  
 1.K        0.99962    0.030735   0.99962    0.030686   0.99962    0.030686  
#Time       v(2)       v(3)       v(5)       v(7)       v(9)       v(12)     
 0.         0.         0.         0.         0.         0.         0.        
 0.001      0.         0.         0.         0.         0.         0.        
 0.002      0.         0.         0.         0.         0.         0.        
 0.003      0.47904    0.043699   0.47906    0.043634   0.4790~    0.0436~   
 0.004      0.92137    0.15871    0.92145    0.15849    0.921~     0.15849   
 0.005      0.85441    0.28164    0.85453    0.28128    0.854~     0.28128   
 0.006      0.79887    0.37003    0.79901    0.36961    0.79~      0.36961   
 0.007      0.2731     0.38866    0.27323    0.38829    0.27323    0.38829   
 0.008     -0.20913    0.31634   -0.20906    0.31614   -0.20906    0.31614   
 0.009     -0.17675    0.22132   -0.17673    0.22128   -0.1767~    0.22128   
 0.01      -0.15163    0.14979   -0.15164    0.14983   -0.1516~    0.14983   
v1 ( 1 0 ) pulse iv= 0. pv= 1. delay= 0.002 rise= 0.002 fall= 0.002 width= 0.002 period= 0.01  AC  1.
r1a ( 1 2 ) Rsource
k1 ( l1a l1b ) K12
l1a ( 2 0 ) L1
l1b ( 3 0 ) L2
r1b ( 3 0 ) Rload
v2 ( 4 0 ) pulse iv= 0. pv= 1. delay= 0.002 rise= 0.002 fall= 0.002 width= 0.002 period= 0.01  AC  1.
r2a ( 4 5 ) Rsource
l2a ( 5 6 ) L1-M12
l2b ( 6 0 ) M12
l2c ( 6 7 ) L2-M12
r2b ( 7 0 ) Rload
v3 ( 8 0 ) pulse iv= 0. pv= 1. delay= 0.002 rise= 0.002 fall= 0.002 width= 0.002 period= 0.01  AC  1.
r3a ( 8 9 ) Rsource
l3a ( 10 0 ) L1
l3b ( 11 0 ) L2
e3a ( 9 10 11 0 ) M12/L2
e3b ( 12 11 10 0 ) M12/L1
r3b ( 12 0 ) Rload
Gnucap   System status
iterations: op=0, dc=0, tran=381, fourier=0, total=519
transient timesteps: accepted=124, rejected=5, total=129
nodes: user=12, subckt=0, model=3, total=15
dctran density=37.8%, ac density=37.8%
