.title na2 
#           v(1)       v(2)       v(4)       v(5)       z(5)       iter(0)   
 0.         0.         0.         0.         0.         1.E+12     0.        
-1.         5.         0.         2.6869     5.8842u    996.24Meg  1.        
-2.         5.         0.         154.84     6.2334u    996.23Meg  2.        
-3.         5.         0.         4.991      244.14n    996.23Meg  3.        
-4.         5.         0.         5.         261.7n     996.23Meg  4.        
-5.         5.         0.         5.         261.7n     996.23Meg  5.        
-6.         5.         0.         5.         261.7n     996.23Meg  6.        
-7.         5.         0.         5.         261.7n     996.23Meg  7.        
 27.        5.         0.         5.         261.7n     996.23Meg  8.        
#           region(XI10.Mp1.Ddb) region(XI10.Mp2.Ddb) region(XI10.Mn1.Ddb) region(XI10.Mn2.Ddb) region(XI10.Mn1.Dsb)
 0.        -1.        -1.        -1.        -1.        -1.        
-1.        -1.        -1.        -1.        -1.        -1.        
-2.        -1.        -1.        -1.        -1.        -1.        
-3.         1.         1.        -1.        -1.        -1.        
-4.        -1.        -1.        -1.        -1.        -1.        
-5.        -1.        -1.        -1.        -1.        -1.        
-6.        -1.        -1.        -1.        -1.        -1.        
-7.        -1.        -1.        -1.        -1.        -1.        
 27.       -1.        -1.        -1.        -1.        -1.        
#           V(XI10.Mp1.Ddb) V(XI10.Mp2.Ddb) V(XI10.Mn1.Ddb) V(XI10.Mn2.Ddb) V(XI10.Mn1.Dsb)
 0.         0.         0.         0.         0.         0.        
-1.        -2.3131    -2.3131    -2.6869    -5.8842u   -5.8842u   
-2.         149.84     149.84    -154.84    -6.2334u   -6.2334u   
-3.        -0.0089704 -0.0089704 -4.991     -244.14n   -244.14n   
-4.         28.028u    28.028u   -5.        -261.7n    -261.7n    
-5.        -3.4216n   -3.4216n   -5.        -261.7n    -261.7n    
-6.        -3.2751n   -3.2751n   -5.        -261.7n    -261.7n    
-7.        -3.2751n   -3.2751n   -5.        -261.7n    -261.7n    
 27.       -3.2751n   -3.2751n   -5.        -261.7n    -261.7n    
#           I(XI10.Mp1.Ddb) I(XI10.Mp2.Ddb) I(XI10.Mn1.Ddb) I(XI10.Mn2.Ddb) I(XI10.Mn1.Dsb)
 0.         0.         0.         0.         0.         0.        
-1.        -3.2074p   -3.2074p   -3.7258p   -8.159E-18 -8.159E-18 
-2.         149.83p    149.83p   -154.85p   -8.643E-18 -8.643E-18 
-3.        -46.453u   -46.453u   -5.001p    -338.8E-21 -338.8E-21 
-4.        -443.2E-18 -443.2E-18 -5.01p     -362.9E-21 -362.9E-21 
-5.        -10.62E-21 -10.62E-21 -5.01p     -362.9E-21 -362.9E-21 
-6.        -4.541E-21 -4.541E-21 -5.01p     -362.9E-21 -362.9E-21 
-7.        -4.541E-21 -4.541E-21 -5.01p     -362.9E-21 -362.9E-21 
 27.       -4.541E-21 -4.541E-21 -5.01p     -362.9E-21 -362.9E-21 
#Time       v(2)       v(4)       v(5)       iter(0)   
 0.         0.         5.         261.7n     8.        
 1.p        0.         5.         261.7n     3.        
 2.p        0.         5.         261.7n     3.        
 3.p        0.         5.         261.7n     3.        
 4.p        0.         5.         261.7n     3.        
 5.p        0.         5.         261.7n     3.        
 100.p      0.         5.         261.7n     3.        
 200.p      0.         5.         261.7n     3.        
 300.p      0.         5.         261.7n     3.        
 400.p      0.         5.         261.7n     3.        
 500.p      0.         5.         261.7n     3.        
 600.p      0.         5.         261.7n     3.        
 700.p      0.         5.         261.7n     3.        
 800.p      0.         5.         261.7n     3.        
 900.p      0.         5.         261.7n     3.        
 1.n        1.f        5.         261.7n     3.        
 1.1n       0.25       5.0011     0.24999    6.        
 1.2n       0.5        5.0019     0.49998    5.        
 1.3n       0.75       5.0026     0.74987    5.        
 1.4n       1.         5.0031     0.97681    5.        
 1.5n       1.25       5.0035     0.7114     6.        
 1.6n       1.5        5.0019     0.19147    10.       
 1.7n       1.75       4.9953     0.18644    6.        
 1.8n       2.         4.9834     0.26039    5.        
 1.9n       2.25       4.9646     0.28388    5.        
 2.n        2.5        4.9376     0.34142    5.        
 2.1n       2.75       4.9014     0.37207    5.        
 2.2n       3.         4.8542     0.42269    5.        
 2.3n       3.25       4.7933     0.45608    5.        
 2.4n       3.5        4.7141     0.50273    5.        
 2.5n       3.75       4.6137     0.53722    4.        
 2.6n       4.         4.4936     0.58113    5.        
 2.7n       4.25       4.3562     0.61601    4.        
 2.8n       4.5        4.2022     0.65779    4.        
 2.9n       4.75       4.0314     0.69242    4.        
 3.n        5.         3.8435     0.73202    4.        
 3.1n       5.         3.6457     0.7221     4.        
 3.2n       5.         3.4483     0.71791    4.        
 3.3n       5.         3.2515     0.71404    4.        
 3.4n       5.         3.0554     0.70939    4.        
 3.5n       5.         2.8602     0.70473    4.        
 3.6n       5.         2.6658     0.69903    4.        
 3.7n       5.         2.4725     0.69268    4.        
 3.8n       5.         2.2805     0.68432    5.        
 3.9n       5.         2.0902     0.67324    5.        
 4.n        5.         1.9025     0.65628    5.        
 4.1n       5.         1.7189     0.63057    5.        
 4.2n       5.         1.5413     0.59552    5.        
 4.3n       5.         1.3716     0.55377    5.        
 4.4n       5.         1.2114     0.50732    5.        
 4.5n       5.         1.0618     0.45864    5.        
 4.6n       5.         0.92392    0.40939    5.        
 4.7n       5.         0.79829    0.36138    5.        
 4.8n       5.         0.68513    0.31565    5.        
 4.9n       5.         0.58435    0.27324    5.        
 5.n        5.         0.49553    0.23451    5.        
 5.1n       5.         0.41801    0.19985    5.        
 5.2n       5.         0.35097    0.16918    5.        
 5.3n       5.         0.29345    0.14245    5.        
 5.4n       5.         0.24447    0.11933    5.        
 5.5n       5.         0.20302    0.099579   5.        
 5.6n       5.         0.16813    0.08277    4.        
 5.7n       5.         0.13892    0.068625   4.        
 5.8n       5.         0.11456    0.056722   4.        
 5.9n       5.         0.094315   0.046813   4.        
 6.n        5.         0.07754    0.03854    4.        
 6.1n       5.         0.063674   0.031707   4.        
 6.2n       5.         0.052237   0.02603    4.        
 6.3n       5.         0.042821   0.021371   4.        
 6.4n       5.         0.035079   0.017509   4.        
 6.5n       5.         0.028721   0.014356   4.        
 6.6n       5.         0.023505   0.011744   4.        
 6.7n       5.         0.019229   0.0096222  4.        
 6.8n       5.         0.015726   0.0078624  4.        
 6.9n       5.         0.012858   0.0064397  4.        
 7.n        5.         0.010511   0.0052566  4.        
 7.1n       5.         0.0085909  0.0043057  4.        
 7.2n       5.         0.0070207  0.0035112  4.        
 7.3n       5.         0.0057368  0.0028772  4.        
 7.4n       5.         0.0046873  0.0023436  4.        
 7.5n       5.         0.0038294  0.001922   4.        
 7.6n       5.         0.0031285  0.0015635  4.        
 7.7n       5.         0.0025556  0.0012838  4.        
 7.8n       5.         0.0020876  0.0010425  4.        
 7.9n       5.         0.0017052  857.56u    4.        
 8.n        5.         0.0013929  694.78u    4.        
 8.1n       5.         0.0011377  572.98u    4.        
 8.2n       5.         929.27u    462.78u    4.        
 8.3n       5.         758.98u    383.u      4.        
 8.4n       5.         619.93u    308.03u    4.        
 8.5n       5.         506.31u    256.18u    4.        
 8.6n       5.         413.55u    204.84u    4.        
 8.7n       5.         337.75u    171.52u    4.        
 8.8n       5.         275.87u    136.05u    4.        
 8.9n       5.         225.3u     114.98u    4.        
 9.n        5.         184.02u    90.209u    4.        
 9.1n       5.         150.28u    77.222u    4.        
 9.2n       5.         122.76u    59.675u    4.        
 9.3n       5.         100.25u    51.99u     4.        
 9.4n       5.         81.887u    39.348u    4.        
 9.5n       5.         66.867u    35.12u     4.        
 9.6n       5.         54.625u    25.827u    4.        
 9.7n       5.         44.603u    23.83u     4.        
 9.8n       5.         36.44u     16.843u    4.        
 9.9n       5.         29.751u    16.266u    4.        
 10.n       5.         24.31u     10.882u    4.        
Gnucap   System status
iterations: op=8, dc=0, tran=454, fourier=0, total=592
transient timesteps: accepted=106, rejected=0, total=106
nodes: user=4, subckt=0, model=0, total=4
dctran density=87.5%, ac density=87.5%
