#Time           v(nddn)        v(nddp)        v(ninn)        v(ninp)        v(noutn)       v(noutp)       von(Mp)        von(Mn)       
 0.             2.            -2.             2.            -2.             0.0174267254  -0.0174267254   0.571660322    0.571660322   
 400.E-12       2.            -2.             2.            -2.             0.0174267254  -0.0174267254   0.571660322    0.571660322   
 800.E-12       2.            -2.             2.            -2.             0.0174267254  -0.0174267254   0.571660322    0.571660322   
 1.2E-9         2.            -2.             2.            -2.             0.0174267254  -0.0174267254   0.571660322    0.571660322   
 1.6E-9         2.            -2.             2.            -2.             0.0174267254  -0.0174267254   0.571660322    0.571660322   
 2.E-9          2.            -2.             2.            -2.             0.0174267254  -0.0174267254   0.571660322    0.571660322   
 5.E-9          2.            -2.             1.74312E-9    -1.74312E-9     1.19040923    -1.19040923     0.570760497    0.570760497   
 8.E-9          2.            -2.             69.152E-12    -69.152E-12     1.93084827    -1.93084827     0.570192488    0.570192488   
 11.E-9         2.            -2.            -47.384E-12     47.384E-12     2.04738417    -2.04738417     0.57010309     0.57010309    
 14.E-9         2.            -2.             32.469E-12    -32.469E-12     1.96753088    -1.96753088     0.570164347    0.570164347   
 20.E-9         2.            -2.            -26.922E-12     26.922E-12     2.02692206    -2.02692206     0.570118787    0.570118787   
 22.E-9         2.            -2.             2.            -2.             0.0292218399  -0.0292218399   0.571651274    0.571651274   
 24.E-9         2.            -2.             2.            -2.             0.0175279161  -0.0175279161   0.571660244    0.571660244   
 27.2E-9        2.            -2.             2.            -2.             0.0173277233  -0.0173277233   0.571660398    0.571660398   
 30.E-9         2.            -2.             2.            -2.             0.0175239759  -0.0175239759   0.571660247    0.571660247   
 32.8E-9        2.            -2.             2.            -2.             0.0173311859  -0.0173311859   0.571660395    0.571660395   
 40.E-9         2.            -2.             2.            -2.             0.0175218355  -0.0175218355   0.571660249    0.571660249   
#Time           v(nddn)        v(nddp)        v(ninn)        v(ninp)        v(noutn)       v(noutp)       von(Mp)        von(Mn)       
 0.             2.            -2.             2.            -2.             0.0174267254  -0.0174267254   0.571660322    0.571660322   
 10.E-12        2.            -2.             2.            -2.             0.0174267254  -0.0174267254   0.571660322    0.571660322   
 20.E-12        2.            -2.             2.            -2.             0.0174267254  -0.0174267254   0.571660322    0.571660322   
 30.E-12        2.            -2.             2.            -2.             0.0174267254  -0.0174267254   0.571660322    0.571660322   
 40.E-12        2.            -2.             2.            -2.             0.0174267254  -0.0174267254   0.571660322    0.571660322   
 50.E-12        2.            -2.             2.            -2.             0.0174267254  -0.0174267254   0.571660322    0.571660322   
 1.E-9          2.            -2.             2.            -2.             0.0174267254  -0.0174267254   0.571660322    0.571660322   
 2.E-9          2.            -2.             2.            -2.             0.0174267254  -0.0174267254   0.571660322    0.571660322   
 3.E-9          2.            -2.             1.33333334    -1.33333334     0.0164291538  -0.0164291538   0.571661087    0.571661087   
 4.E-9          2.            -2.             0.666666669   -0.666666669    0.44377899    -0.44377899     0.571333256    0.571333256   
 5.E-9          2.            -2.             1.152412E-9   -1.152412E-9    1.88603399    -1.88603399     0.570226866    0.570226866   
 6.E-9          2.            -2.             24.942E-12    -24.942E-12     1.97505742    -1.97505742     0.570158574    0.570158574   
 7.E-9          2.            -2.            -7.028E-12      7.028E-12      2.00702756    -2.00702756     0.570134049    0.570134049   
 8.E-9          2.            -2.             1.98E-12      -1.98E-12       1.99801968    -1.99801968     0.570140959    0.570140959   
 9.E-9          2.            -2.            -558.E-15       558.E-15       2.00055773    -2.00055773     0.570139012    0.570139012   
 10.E-9         2.            -2.             157.E-15      -157.E-15       1.99984262    -1.99984262     0.57013956     0.57013956    
 11.E-9         2.            -2.            -558.E-15       558.E-15       2.00055773    -2.00055773     0.570139012    0.570139012   
 12.E-9         2.            -2.             671.E-15      -671.E-15       1.99932899    -1.99932899     0.570139954    0.570139954   
 13.E-9         2.            -2.            -1.072E-12      1.072E-12      2.00107136    -2.00107136     0.570138618    0.570138618   
 14.E-9         2.            -2.             1.553E-12     -1.553E-12      1.99844645    -1.99844645     0.570140631    0.570140631   
 15.E-9         2.            -2.            -438.E-15       438.E-15       2.00043749    -2.00043749     0.570139104    0.570139104   
 16.E-9         2.            -2.             1.553E-12     -1.553E-12      1.99844645    -1.99844645     0.570140631    0.570140631   
 17.E-9         2.            -2.            -1.868E-12      1.868E-12      2.00186753    -2.00186753     0.570138007    0.570138007   
 18.E-9         2.            -2.             526.E-15      -526.E-15       1.99947357    -1.99947357     0.570139843    0.570139843   
 19.E-9         2.            -2.            -148.E-15       148.E-15       2.00014809    -2.00014809     0.570139326    0.570139326   
 20.E-9         2.            -2.             526.E-15      -526.E-15       1.99947357    -1.99947357     0.570139843    0.570139843   
 21.E-9         2.            -2.             0.999999997   -0.999999997    0.10300975    -0.10300975     0.571594669    0.571594669   
 22.E-9         2.            -2.             2.            -2.             0.0338462379  -0.0338462379   0.571647726    0.571647726   
 23.E-9         2.            -2.             2.            -2.             0.0177057817  -0.0177057817   0.571660108    0.571660108   
 24.E-9         2.            -2.             2.            -2.             0.0171665111  -0.0171665111   0.571660522    0.571660522   
 25.E-9         2.            -2.             2.            -2.             0.0176747566  -0.0176747566   0.571660132    0.571660132   
 26.E-9         2.            -2.             2.            -2.             0.0171905625  -0.0171905625   0.571660503    0.571660503   
 27.E-9         2.            -2.             2.            -2.             0.0176517721  -0.0176517721   0.571660149    0.571660149   
 28.E-9         2.            -2.             2.            -2.             0.0172124385  -0.0172124385   0.571660486    0.571660486   
 29.E-9         2.            -2.             2.            -2.             0.0176309184  -0.0176309184   0.571660165    0.571660165   
 30.E-9         2.            -2.             2.            -2.             0.0172322883  -0.0172322883   0.571660471    0.571660471   
 31.E-9         2.            -2.             2.            -2.             0.0176119973  -0.0176119973   0.57166018     0.57166018    
 32.E-9         2.            -2.             2.            -2.             0.0172502997  -0.0172502997   0.571660457    0.571660457   
 33.E-9         2.            -2.             2.            -2.             0.0175948298  -0.0175948298   0.571660193    0.571660193   
 34.E-9         2.            -2.             2.            -2.             0.0172666429  -0.0172666429   0.571660445    0.571660445   
 35.E-9         2.            -2.             2.            -2.             0.0175792532  -0.0175792532   0.571660205    0.571660205   
 36.E-9         2.            -2.             2.            -2.             0.0172814723  -0.0172814723   0.571660433    0.571660433   
 37.E-9         2.            -2.             2.            -2.             0.0175651202  -0.0175651202   0.571660216    0.571660216   
 38.E-9         2.            -2.             2.            -2.             0.0172949282  -0.0172949282   0.571660423    0.571660423   
 39.E-9         2.            -2.             2.            -2.             0.0175522968  -0.0175522968   0.571660226    0.571660226   
 40.E-9         2.            -2.             2.            -2.             0.0173071376  -0.0173071376   0.571660414    0.571660414   
#Time           v(nddn)        v(nddp)        v(ninn)        v(ninp)        v(noutn)       v(noutp)       von(Mp)        von(Mn)       
 0.             2.            -2.             2.            -2.             0.0174267254  -0.0174267254   0.571660322    0.571660322   
 1.E-12         2.            -2.             2.            -2.             0.0174267254  -0.0174267254   0.571660322    0.571660322   
 2.E-12         2.            -2.             2.            -2.             0.0174267254  -0.0174267254   0.571660322    0.571660322   
 3.E-12         2.            -2.             2.            -2.             0.0174267254  -0.0174267254   0.571660322    0.571660322   
 4.E-12         2.            -2.             2.            -2.             0.0174267255  -0.0174267255   0.571660322    0.571660322   
 5.E-12         2.            -2.             2.            -2.             0.0174267253  -0.0174267253   0.571660322    0.571660322   
 100.E-12       2.            -2.             2.            -2.             0.0174267311  -0.0174267311   0.571660322    0.571660322   
 200.E-12       2.            -2.             2.            -2.             0.0174267222  -0.0174267222   0.571660322    0.571660322   
 300.E-12       2.            -2.             2.            -2.             0.0174267276  -0.0174267276   0.571660322    0.571660322   
 400.E-12       2.            -2.             2.            -2.             0.0174267239  -0.0174267239   0.571660322    0.571660322   
 500.E-12       2.            -2.             2.            -2.             0.0174267264  -0.0174267264   0.571660322    0.571660322   
 600.E-12       2.            -2.             2.            -2.             0.0174267248  -0.0174267248   0.571660322    0.571660322   
 700.E-12       2.            -2.             2.            -2.             0.0174267259  -0.0174267259   0.571660322    0.571660322   
 800.E-12       2.            -2.             2.            -2.             0.0174267251  -0.0174267251   0.571660322    0.571660322   
 900.E-12       2.            -2.             2.            -2.             0.0174267256  -0.0174267256   0.571660322    0.571660322   
 1.E-9          2.            -2.             2.            -2.             0.0174267253  -0.0174267253   0.571660322    0.571660322   
 1.1E-9         2.            -2.             2.            -2.             0.0174267255  -0.0174267255   0.571660322    0.571660322   
 1.2E-9         2.            -2.             2.            -2.             0.0174267254  -0.0174267254   0.571660322    0.571660322   
 1.3E-9         2.            -2.             2.            -2.             0.0174267255  -0.0174267255   0.571660322    0.571660322   
 1.4E-9         2.            -2.             2.            -2.             0.0174267254  -0.0174267254   0.571660322    0.571660322   
 1.5E-9         2.            -2.             2.            -2.             0.0174267254  -0.0174267254   0.571660322    0.571660322   
 1.6E-9         2.            -2.             2.            -2.             0.0174267254  -0.0174267254   0.571660322    0.571660322   
 1.7E-9         2.            -2.             2.            -2.             0.0174267254  -0.0174267254   0.571660322    0.571660322   
 1.8E-9         2.            -2.             2.            -2.             0.0174267254  -0.0174267254   0.571660322    0.571660322   
 1.9E-9         2.            -2.             2.            -2.             0.0174267254  -0.0174267254   0.571660322    0.571660322   
 2.E-9          2.            -2.             2.            -2.             0.0174267254  -0.0174267254   0.571660322    0.571660322   
 2.1E-9         2.            -2.             1.93333334    -1.93333334     0.0108318684  -0.0108318684   0.571665381    0.571665381   
 2.2E-9         2.            -2.             1.86666667    -1.86666667     0.00939540669 -0.00939540669  0.571666483    0.571666483   
 2.3E-9         2.            -2.             1.8           -1.8            0.0107627056  -0.0107627056   0.571665434    0.571665434   
 2.4E-9         2.            -2.             1.73333334    -1.73333334     0.0108657027  -0.0108657027   0.571665355    0.571665355   
 2.5E-9         2.            -2.             1.66666667    -1.66666667     0.0116421921  -0.0116421921   0.57166476     0.57166476    
 2.6E-9         2.            -2.             1.6           -1.6            0.0122257399  -0.0122257399   0.571664312    0.571664312   
 2.7E-9         2.            -2.             1.53333334    -1.53333334     0.0130168936  -0.0130168936   0.571663705    0.571663705   
 2.8E-9         2.            -2.             1.46666667    -1.46666667     0.0138763191  -0.0138763191   0.571663046    0.571663046   
 2.9E-9         2.            -2.             1.4           -1.4            0.0148951934  -0.0148951934   0.571662264    0.571662264   
 3.E-9          2.            -2.             1.33333334    -1.33333334     0.0160878003  -0.0160878003   0.571661349    0.571661349   
 3.1E-9         2.            -2.             1.26666667    -1.26666667     0.0175148506  -0.0175148506   0.571660254    0.571660254   
 3.2E-9         2.            -2.             1.2           -1.2            0.0192496072  -0.0192496072   0.571658924    0.571658924   
 3.3E-9         2.            -2.             1.13333334    -1.13333334     0.0214066355  -0.0214066355   0.571657269    0.571657269   
 3.4E-9         2.            -2.             1.06666667    -1.06666667     0.0241662083  -0.0241662083   0.571655152    0.571655152   
 3.5E-9         2.            -2.             1.            -1.             0.0278359675  -0.0278359675   0.571652337    0.571652337   
 3.6E-9         2.            -2.             0.933333335   -0.933333335    0.0329980636  -0.0329980636   0.571648377    0.571648377   
 3.7E-9         2.            -2.             0.866666669   -0.866666669    0.0409560744  -0.0409560744   0.571642272    0.571642272   
 3.8E-9         2.            -2.             0.800000002   -0.800000002    0.0557658083  -0.0557658083   0.571630911    0.571630911   
 3.9E-9         2.            -2.             0.733333335   -0.733333335    0.106389715   -0.106389715    0.571592076    0.571592076   
 4.E-9          2.            -2.             0.666666669   -0.666666669    0.315756704   -0.315756704    0.571431466    0.571431466   
 4.1E-9         2.            -2.             0.600000002   -0.600000002    0.59939887    -0.59939887     0.571213876    0.571213876   
 4.2E-9         2.            -2.             0.533333335   -0.533333335    0.887531701   -0.887531701    0.570992842    0.570992842   
 4.3E-9         2.            -2.             0.466666668   -0.466666668    1.14291628    -1.14291628     0.57079693     0.57079693    
 4.4E-9         2.            -2.             0.400000002   -0.400000002    1.34006742    -1.34006742     0.570645691    0.570645691   
 4.5E-9         2.            -2.             0.333333335   -0.333333335    1.4821223     -1.4821223      0.570536717    0.570536717   
 4.6E-9         2.            -2.             0.266666668   -0.266666668    1.5821461     -1.5821461      0.570459986    0.570459986   
 4.7E-9         2.            -2.             0.200000001   -0.200000001    1.65207919    -1.65207919     0.570406338    0.570406338   
 4.8E-9         2.            -2.             0.133333335   -0.133333335    1.70087209    -1.70087209     0.570368908    0.570368908   
 4.9E-9         2.            -2.             0.0666666678  -0.0666666678   1.73489509    -1.73489509     0.570342808    0.570342808   
 5.E-9          2.            -2.             1.297582E-9   -1.297582E-9    1.75861516    -1.75861516     0.570324612    0.570324612   
 5.1E-9         2.            -2.             177.892E-12   -177.892E-12    1.82210772    -1.82210772     0.570275905    0.570275905   
 5.2E-9         2.            -2.             124.014E-12   -124.014E-12    1.87598538    -1.87598538     0.570234574    0.570234574   
 5.3E-9         2.            -2.             86.454E-12    -86.454E-12     1.91354526    -1.91354526     0.570205761    0.570205761   
 5.4E-9         2.            -2.             60.27E-12     -60.27E-12      1.9397295     -1.9397295      0.570185675    0.570185675   
 5.5E-9         2.            -2.             42.016E-12    -42.016E-12     1.95798339    -1.95798339     0.570171672    0.570171672   
 5.6E-9         2.            -2.             29.291E-12    -29.291E-12     1.97070878    -1.97070878     0.57016191     0.57016191    
 5.7E-9         2.            -2.             20.42E-12     -20.42E-12      1.97958007    -1.97958007     0.570155104    0.570155104   
 5.8E-9         2.            -2.             14.235E-12    -14.235E-12     1.98576454    -1.98576454     0.57015036     0.57015036    
 5.9E-9         2.            -2.             9.924E-12     -9.924E-12      1.99007594    -1.99007594     0.570147053    0.570147053   
 6.E-9          2.            -2.             6.918E-12     -6.918E-12      1.99308155    -1.99308155     0.570144747    0.570144747   
 6.1E-9         2.            -2.             4.823E-12     -4.823E-12      1.99517687    -1.99517687     0.570143139    0.570143139   
 6.2E-9         2.            -2.             3.362E-12     -3.362E-12      1.99663758    -1.99663758     0.570142019    0.570142019   
 6.3E-9         2.            -2.             4.823E-12     -4.823E-12      1.99517687    -1.99517687     0.570143139    0.570143139   
 6.4E-9         2.            -2.             883.E-15      -883.E-15       1.9991166     -1.9991166      0.570140117    0.570140117   
 6.5E-9         2.            -2.             615.E-15      -615.E-15       1.9993841     -1.9993841      0.570139912    0.570139912   
 6.6E-9         2.            -2.             883.E-15      -883.E-15       1.9991166     -1.9991166      0.570140117    0.570140117   
 6.7E-9         2.            -2.             162.E-15      -162.E-15       1.99983807    -1.99983807     0.570139564    0.570139564   
 6.8E-9         2.            -2.             1.337E-12     -1.337E-12      1.99866262    -1.99866262     0.570140465    0.570140465   
 6.9E-9         2.            -2.            -1.063E-12      1.063E-12      2.00106251    -2.00106251     0.570138624    0.570138624   
 7.E-9          2.            -2.            -741.E-15       741.E-15       2.00074065    -2.00074065     0.570138871    0.570138871   
 7.1E-9         2.            -2.            -1.063E-12      1.063E-12      2.00106251    -2.00106251     0.570138624    0.570138624   
 7.2E-9         2.            -2.            -195.E-15       195.E-15       2.00019442    -2.00019442     0.57013929     0.57013929    
 7.3E-9         2.            -2.            -1.609E-12      1.609E-12      2.00160874    -2.00160874     0.570138205    0.570138205   
 7.4E-9         2.            -2.             1.278E-12     -1.278E-12      1.99872117    -1.99872117     0.570140421    0.570140421   
 7.5E-9         2.            -2.             891.E-15      -891.E-15       1.99910843    -1.99910843     0.570140123    0.570140123   
