.title na2 
#           v(1)       v(2)       v(4)       v(5)       z(5)       iter(0)   
 0.         0.         0.         0.         0.         1.E+12     0.        
-1.         5.         0.         2.6869     5.8842u    996.24Meg  1.        
-2.         5.         0.         154.84     6.2334u    996.23Meg  2.        
-3.         5.         0.         4.991      244.14n    996.23Meg  3.        
-4.         5.         0.         5.         261.7n     996.23Meg  4.        
-5.         5.         0.         5.         261.7n     996.23Meg  5.        
-6.         5.         0.         5.         261.7n     996.23Meg  6.        
-7.         5.         0.         5.         261.7n     996.23Meg  7.        
 27.        5.         0.         5.         261.7n     996.23Meg  8.        
#           region(XI10.Mp1.Ddb) region(XI10.Mp2.Ddb) region(XI10.Mn1.Ddb) region(XI10.Mn2.Ddb) region(XI10.Mn1.Dsb)
 0.        -1.        -1.        -1.        -1.        -1.        
-1.        -1.        -1.        -1.        -1.        -1.        
-2.        -1.        -1.        -1.        -1.        -1.        
-3.         1.         1.        -1.        -1.        -1.        
-4.        -1.        -1.        -1.        -1.        -1.        
-5.        -1.        -1.        -1.        -1.        -1.        
-6.        -1.        -1.        -1.        -1.        -1.        
-7.        -1.        -1.        -1.        -1.        -1.        
 27.       -1.        -1.        -1.        -1.        -1.        
#           V(XI10.Mp1.Ddb) V(XI10.Mp2.Ddb) V(XI10.Mn1.Ddb) V(XI10.Mn2.Ddb) V(XI10.Mn1.Dsb)
 0.         0.         0.         0.         0.         0.        
-1.        -2.3131    -2.3131    -2.6869    -5.8842u   -5.8842u   
-2.         149.84     149.84    -154.84    -6.2334u   -6.2334u   
-3.        -0.0089704 -0.0089704 -4.991     -244.14n   -244.14n   
-4.         28.028u    28.028u   -5.        -261.7n    -261.7n    
-5.        -3.4216n   -3.4216n   -5.        -261.7n    -261.7n    
-6.        -3.2751n   -3.2751n   -5.        -261.7n    -261.7n    
-7.        -3.2751n   -3.2751n   -5.        -261.7n    -261.7n    
 27.       -3.2751n   -3.2751n   -5.        -261.7n    -261.7n    
#           I(XI10.Mp1.Ddb) I(XI10.Mp2.Ddb) I(XI10.Mn1.Ddb) I(XI10.Mn2.Ddb) I(XI10.Mn1.Dsb)
 0.         0.         0.         0.         0.         0.        
-1.        -3.2074p   -3.2074p   -3.7258p   -8.159E-18 -8.159E-18 
-2.         149.83p    149.83p   -154.85p   -8.643E-18 -8.643E-18 
-3.        -46.453u   -46.453u   -5.001p    -338.8E-21 -338.8E-21 
-4.        -443.2E-18 -443.2E-18 -5.01p     -362.9E-21 -362.9E-21 
-5.        -10.62E-21 -10.62E-21 -5.01p     -362.9E-21 -362.9E-21 
-6.        -4.541E-21 -4.541E-21 -5.01p     -362.9E-21 -362.9E-21 
-7.        -4.541E-21 -4.541E-21 -5.01p     -362.9E-21 -362.9E-21 
 27.       -4.541E-21 -4.541E-21 -5.01p     -362.9E-21 -362.9E-21 
#Time       v(2)       v(4)       v(5)       iter(0)   
 0.         0.         5.         261.7n     8.        
 1.p        4.976p     5.         261.7n     5.        
 2.p        270.f      5.         261.7n     4.        
 3.p       -544.f      5.         261.69n    4.        
 4.p        501.f      5.         261.7n     4.        
 5.p       -550.f      5.         261.7n     4.        
 28.75p     512.f      5.         261.66n    4.        
 100.p     -549.f      5.         261.8n     5.        
 200.p      516.f      5.         261.46n    5.        
 300.p     -543.f      5.         261.46n    5.        
 400.p      523.f      5.         261.46n    5.        
 500.p     -538.f      5.         261.46n    5.        
 600.p      526.f      5.         261.46n    5.        
 700.p     -535.f      5.         261.46n    5.        
 800.p      529.f      5.         261.46n    5.        
 900.p     -533.f      5.         261.46n    5.        
 1.n        531.f      5.         261.46n    5.        
 1.1n       0.25       5.0019     0.24999    5.        
 1.2n       0.5        5.0053     0.49999    5.        
 1.3n       0.75       5.0078     0.74996    5.        
 1.4n       1.         5.0099     1.0014     5.        
 1.5n       1.25       5.0117     0.99593    5.        
 1.6n       1.5        5.0128     0.26179    8.        
 1.7n       1.75       5.0089     0.19554    7.        
 1.8n       2.         4.9983     0.26724    5.        
 1.9n       2.25       4.9798     0.2951     5.        
 2.n        2.5        4.9533     0.34531    5.        
 2.1n       2.75       4.9183     0.38189    5.        
 2.2n       3.         4.8728     0.42623    5.        
 2.3n       3.25       4.8147     0.46472    5.        
 2.4n       3.5        4.7401     0.50643    5.        
 2.5n       3.75       4.6466     0.5451     5.        
 2.6n       4.         4.5304     0.58512    5.        
 2.7n       4.25       4.3936     0.62329    5.        
 2.8n       4.5        4.2424     0.66198    4.        
 2.9n       4.75       4.0736     0.69933    4.        
 3.n        5.         3.8876     0.73649    4.        
 3.1n       5.         3.6912     0.72349    4.        
 3.2n       5.         3.494      0.71865    4.        
 3.3n       5.         3.2974     0.71537    4.        
 3.4n       5.         3.1015     0.71062    4.        
 3.5n       5.         2.9064     0.70606    4.        
 3.6n       5.         2.7121     0.70064    4.        
 3.7n       5.         2.5189     0.69456    4.        
 3.8n       5.         2.3268     0.68688    5.        
 3.9n       5.         2.1364     0.67688    5.        
 4.n        5.         1.9483     0.66215    5.        
 4.1n       5.         1.7637     0.63931    5.        
 4.2n       5.         1.5844     0.6067     5.        
 4.3n       5.         1.4125     0.56647    5.        
 4.4n       5.         1.2498     0.52101    5.        
 4.5n       5.         1.0976     0.4726     5.        
 4.6n       5.         0.95687    0.42325    5.        
 4.7n       5.         0.82831    0.37468    5.        
 4.8n       5.         0.71222    0.3282     5.        
 4.9n       5.         0.60856    0.28479    5.        
 5.n        5.         0.51699    0.24503    5.        
 5.1n       5.         0.4369     0.20927    5.        
 5.2n       5.         0.36747    0.17756    5.        
 5.3n       5.         0.3078     0.1498     5.        
 5.4n       5.         0.25687    0.12576    5.        
 5.5n       5.         0.2137     0.10514    5.        
 5.6n       5.         0.1773     0.087584   4.        
 5.7n       5.         0.14676    0.072742   4.        
 5.8n       5.         0.12125    0.06026    4.        
 5.9n       5.         0.10001    0.049816   4.        
 6.n        5.         0.082372   0.041107   4.        
 6.1n       5.         0.06777    0.033872   4.        
 6.2n       5.         0.055703   0.027875   4.        
 6.3n       5.         0.045748   0.022917   4.        
 6.4n       5.         0.037567   0.01894    4.        
 6.5n       5.         0.030834   0.015458   4.        
 6.6n       5.         0.025296   0.012782   4.        
 6.7n       5.         0.020745   0.010398   4.        
 6.8n       5.         0.017062   0.008639   4.        
 6.9n       5.         0.014029   0.0070249  4.        
 7.n        5.         0.011533   0.0058535  4.        
 7.1n       5.         0.0094797  0.0047385  4.        
 7.2n       5.         0.0077904  0.0039655  4.        
 7.3n       5.         0.006402   0.0031915  4.        
 7.4n       5.         0.00526    0.0026874  4.        
 7.5n       5.         0.004322   0.0021462  4.        
 7.6n       5.         0.0035505  0.0018227  4.        
 7.7n       5.         0.002917   0.0014406  4.        
 7.8n       5.         0.002396   0.001238   4.        
 7.9n       5.         0.0019685  964.8u     4.        
 8.n        5.         0.0016167  842.58u    4.        
 8.1n       5.         0.0013283  644.18u    4.        
 8.2n       5.         0.0010908  575.09u    4.        
 8.3n       5.         896.19u    428.35u    4.        
 8.4n       5.         735.9u     394.04u    4.        
 8.5n       5.         604.65u    283.22u    4.        
 8.6n       5.         496.44u    271.38u    4.        
 8.7n       5.         407.94u    185.76u    4.        
 8.8n       5.         334.88u    188.17u    4.        
 8.9n       5.         275.23u    120.44u    4.        
 9.n        5.         225.89u    131.62u    4.        
 9.1n       5.         185.7u     76.769u    4.        
 9.2n       5.         152.37u    93.089u    4.        
 9.3n       5.         125.29u    47.672u    4.        
 9.4n       5.         102.77u    66.745u    4.        
 9.5n       5.         84.541u    28.378u    4.        
 9.6n       5.         69.309u    48.652u    4.        
 9.7n       5.         57.05u     15.669u    4.        
 9.8n       5.         46.74u     36.151u    4.        
 9.9n       5.         38.503u    7.3793u    4.        
 10.n       5.         31.516u    27.447u    4.        
Gnucap   System status
iterations: op=8, dc=0, tran=483, fourier=0, total=622
transient timesteps: accepted=107, rejected=0, total=107
nodes: user=4, subckt=0, model=0, total=4
dctran density=87.5%, ac density=87.5%
