.title mos2 inverter 
#          
 27.       
#           v(1)       v(2)       v(3)       v(4)       v(5)       v(6)       v(7)      
 0.         5.         0.         5.         4.5941     5.         4.2966     5.        
 0.25       5.         0.25       5.         4.5687     5.         4.2523     5.        
 0.5        5.         0.5        5.         4.5397     5.         4.2014     5.        
 0.75       5.         0.75       4.9996     4.5058     4.9996     4.1421     4.9981    
 1.         5.         1.         4.9863     4.4525     4.9863     4.0719     4.9304    
 1.25       5.         1.25       4.95       4.3664     4.95       3.9868     4.766     
 1.5        5.         1.5        4.8833     4.2335     4.8833     3.8803     4.505     
 1.75       5.         1.75       4.7738     4.0264     4.7738     3.7408     4.1472    
 2.         5.         2.         4.5974     3.6708     4.5974     3.5426     3.6928    
 2.25       5.         2.25       4.2916     2.4863     4.2916     3.2017     3.1417    
 2.5        5.         2.5        1.7997     0.96441    1.7997     2.5062     2.4938    
 2.75       5.         2.75       0.70836    0.56397    0.70836    1.8583     1.7983    
 3.         5.         3.         0.40263    0.33902    0.40263    1.3072     1.4574    
 3.25       5.         3.25       0.22621    0.19589    0.22621    0.85279    1.2592    
 3.5        5.         3.5        0.11672    0.10288    0.11672    0.49504    1.1197    
 3.75       5.         3.75       0.05       0.044621   0.05       0.23399    1.0132    
 4.         5.         4.         0.013665   0.012309   0.013665   0.069615   0.92812   
 4.25       5.         4.25       352.14u    319.55u    352.14u    0.0019338  0.85788   
 4.5        5.         4.5        6.6046n    6.0301n    6.6046n    38.826n    0.79861   
 4.75       5.         4.75       6.1969n    5.6885n    6.1969n    38.826n    0.74772   
 5.         5.         5.         5.8366n    5.3834n    5.8366n    38.826n    0.70343   
#Time       v(1)       v(2)       v(3)       v(4)       v(5)       v(6)       v(7)      
 0.         5.         0.         5.         4.5941     5.         4.2966     5.        
 100.p      5.        -1.6~p      5.         4.5941     5.0001     4.2966     5.        
 200.p      5.         1.59~p     5.         4.5941     5.0001     4.2966     5.        
 300.p      5.        -1.6~p      5.         4.5941     5.0001     4.2966     5.        
 400.p      5.         1.59~p     5.         4.5941     5.0001     4.2966     5.        
 500.p      5.        -1.~p       5.         4.5941     5.0001     4.2966     5.        
 600.p      5.         1.5~p      5.         4.5941     5.         4.2966     5.        
 700.p      5.        -1.~p       5.         4.5941     5.         4.2966     5.        
 800.p      5.         1.5~p      5.         4.5941     5.         4.2966     5.        
 900.p      5.        -1.~p       5.         4.5941     5.         4.2966     5.        
 1.n        5.         1.5~p      5.         4.5941     5.         4.2966     5.        
 1.1n       5.         0.25       5.0018     4.5707     5.0001     4.2544     5.        
 1.2n       5.         0.5        5.002      4.5419     5.0003     4.2037     5.        
 1.3n       5.         0.75       5.0018     4.5082     5.0005     4.1446     4.9981    
 1.4n       5.         1.         4.9889     4.4554     5.         4.0748     4.9304    
 1.5n       5.         1.25       4.9529     4.3698     4.9984     3.99       4.766     
 1.6n       5.         1.5        4.887      4.2381     4.9933     3.8842     4.505     
 1.7n       5.         1.75       4.7785     4.0327     4.9832     3.7455     4.1472    
 1.8n       5.         2.         4.6043     3.6818     4.9667     3.5488     3.6928    
 1.9n       5.         2.25       4.3037     2.5246     4.9422     3.2092     3.1417    
 2.n        5.         2.5        3.4094     0.98446    4.9083     2.5082     2.4938    
 2.1n       5.         2.75       0.76396    0.56824    4.8633     1.8563     1.8068    
 2.2n       5.         3.         0.3819     0.34677    4.8052     1.3092     1.4629    
 2.3n       5.         3.25       0.25269    0.19772    4.7319     0.85079    1.2644    
 2.4n       5.         3.5        0.10268    0.10779    4.641      0.49704    1.1232    
 2.5n       5.         3.75       0.068272   0.045674   4.5295     0.23198    1.0168    
 2.6n       5.         4.         0.0027905  0.015923   4.3947     0.071616   0.93073   
 2.7n       5.         4.25       0.014489   0.0010093  4.2339    -66.919u    0.86066   
 2.8n       5.         4.5       -0.0088544  0.0029286  4.0472     0.0020008  0.80071   
 2.9n       5.         4.75       0.011733   668.41u    3.8351    -0.0020007  0.75      
 3.n        5.         5.        -0.0072757  0.0025609  3.5981     0.0020008  0.7052    
 3.1n       5.         5.        -50.417u    16.376u    3.35       38.826n    0.70344   
 3.2n       5.         5.         49.042u    32.543u    3.1098     38.826n    0.70345   
 3.3n       5.         5.        -50.417u   -32.116u    2.8775     38.826n    0.70341   
 3.4n       5.         5.         51.779u    32.954u    2.6541     38.826n    0.70345   
 3.5n       5.         5.        -53.155u   -33.759u    2.4408     38.826n    0.70341   
 3.6n       5.         5.         54.592u    34.607u    2.2381     38.826n    0.70345   
 3.7n       5.         5.        -56.043u   -35.455u    2.0467     38.826n    0.7034    
 3.8n       5.         5.         57.557u    36.345u    1.8669     38.826n    0.70346   
 3.9n       5.         5.        -59.088u   -37.235u    1.6988     38.826n    0.7034    
 4.n        5.         5.         60.684u    38.17u     1.5423     38.826n    0.70346   
 4.1n       5.         5.        -62.298u   -39.105u    1.3974     38.826n    0.7034    
 4.2n       5.         5.         63.981u    40.086u    1.2637     38.826n    0.70346   
 4.3n       5.         5.        -65.683u   -41.069u    1.1408     38.826n    0.7034    
 4.4n       5.         5.         67.456u    42.098u    1.0281     38.826n    0.70346   
 4.5n       5.         5.        -69.251u   -43.131u    0.92522    38.826n    0.7034    
 4.6n       5.         5.         71.121u    44.212u    0.8315     38.826n    0.70346   
 4.7n       5.         5.        -73.014u   -45.297u    0.74635    38.826n    0.7034    
 4.8n       5.         5.         74.984u    46.432u    0.66918    38.826n    0.70346   
 4.9n       5.         5.        -76.981u   -47.572u    0.59939    38.826n    0.7034    
 5.n        5.         5.         79.058u    48.763u    0.53638    38.826n    0.70346   
Gnucap   System status
iterations: op=9, dc=148, tran=271, fourier=0, total=485
transient timesteps: accepted=57, rejected=0, total=57
nodes: user=7, subckt=0, model=0, total=7
dctran density=59.2%, ac density=59.2%
