#Time           v(ninn)        v(ninp)        v(noutn)       v(noutp)       von(Mp)        von(Mn)       
 0.             2.            -2.             0.0174267254  -0.0174267254   0.571660322    0.571660322   
 40.E-9         2.            -2.             0.0175218355  -0.0175218355   0.571660249    0.571660249   
#Time           v(ninn)        v(ninp)        v(noutn)       v(noutp)       von(Mp)        von(Mn)       
 0.             2.            -2.             0.0174267254  -0.0174267254   0.571660322    0.571660322   
 5.E-9          1.743119E-9   -1.743119E-9    1.19040923    -1.19040923     0.570760497    0.570760497   
 10.E-9        -38.883E-12     38.883E-12     2.03888255    -2.03888255     0.570109612    0.570109612   
 15.E-9        -15.62E-12      15.62E-12      2.01561896    -2.01561896     0.570127458    0.570127458   
 20.E-9         12.471E-12    -12.471E-12     1.98752877    -1.98752877     0.570149007    0.570149007   
 25.E-9         2.            -2.             0.0173327332  -0.0173327332   0.571660394    0.571660394   
 30.E-9         2.            -2.             0.017335784   -0.017335784    0.571660392    0.571660392   
 35.E-9         2.            -2.             0.0175169696  -0.0175169696   0.571660253    0.571660253   
 40.E-9         2.            -2.             0.0173373826  -0.0173373826   0.571660391    0.571660391   
#Time           v(ninn)        v(ninp)        v(noutn)       v(noutp)       von(Mp)        von(Mn)       
 0.             2.            -2.             0.0174267254  -0.0174267254   0.571660322    0.571660322   
 1.E-9          2.            -2.             0.0174267254  -0.0174267254   0.571660322    0.571660322   
 2.E-9          2.            -2.             0.0174267254  -0.0174267254   0.571660322    0.571660322   
 3.E-9          1.33333334    -1.33333334     0.0164291538  -0.0164291538   0.571661087    0.571661087   
 4.E-9          0.666666669   -0.666666669    0.44377899    -0.44377899     0.571333256    0.571333256   
 5.E-9          1.152412E-9   -1.152412E-9    1.88603399    -1.88603399     0.570226866    0.570226866   
 6.E-9          24.942E-12    -24.942E-12     1.97505742    -1.97505742     0.570158574    0.570158574   
 7.E-9         -7.028E-12      7.028E-12      2.00702756    -2.00702756     0.570134049    0.570134049   
 8.E-9          1.98E-12      -1.98E-12       1.99801968    -1.99801968     0.570140959    0.570140959   
 9.E-9         -558.E-15       558.E-15       2.00055773    -2.00055773     0.570139012    0.570139012   
 10.E-9         157.E-15      -157.E-15       1.99984262    -1.99984262     0.57013956     0.57013956    
 11.E-9        -558.E-15       558.E-15       2.00055773    -2.00055773     0.570139012    0.570139012   
 12.E-9         671.E-15      -671.E-15       1.99932899    -1.99932899     0.570139954    0.570139954   
 13.E-9        -1.072E-12      1.072E-12      2.00107136    -2.00107136     0.570138618    0.570138618   
 14.E-9         1.553E-12     -1.553E-12      1.99844645    -1.99844645     0.570140631    0.570140631   
 15.E-9        -438.E-15       438.E-15       2.00043749    -2.00043749     0.570139104    0.570139104   
 16.E-9         1.553E-12     -1.553E-12      1.99844645    -1.99844645     0.570140631    0.570140631   
 17.E-9        -1.868E-12      1.868E-12      2.00186753    -2.00186753     0.570138007    0.570138007   
 18.E-9         526.E-15      -526.E-15       1.99947357    -1.99947357     0.570139843    0.570139843   
 19.E-9        -148.E-15       148.E-15       2.00014809    -2.00014809     0.570139326    0.570139326   
 20.E-9         526.E-15      -526.E-15       1.99947357    -1.99947357     0.570139843    0.570139843   
 21.E-9         0.999999997   -0.999999997    0.10300975    -0.10300975     0.571594669    0.571594669   
 22.E-9         2.            -2.             0.0338462379  -0.0338462379   0.571647726    0.571647726   
 23.E-9         2.            -2.             0.0177057817  -0.0177057817   0.571660108    0.571660108   
 24.E-9         2.            -2.             0.0171665111  -0.0171665111   0.571660522    0.571660522   
 25.E-9         2.            -2.             0.0176747566  -0.0176747566   0.571660132    0.571660132   
 26.E-9         2.            -2.             0.0171905625  -0.0171905625   0.571660503    0.571660503   
 27.E-9         2.            -2.             0.0176517721  -0.0176517721   0.571660149    0.571660149   
 28.E-9         2.            -2.             0.0172124385  -0.0172124385   0.571660486    0.571660486   
 29.E-9         2.            -2.             0.0176309184  -0.0176309184   0.571660165    0.571660165   
 30.E-9         2.            -2.             0.0172322883  -0.0172322883   0.571660471    0.571660471   
 31.E-9         2.            -2.             0.0176119973  -0.0176119973   0.57166018     0.57166018    
 32.E-9         2.            -2.             0.0172502997  -0.0172502997   0.571660457    0.571660457   
 33.E-9         2.            -2.             0.0175948298  -0.0175948298   0.571660193    0.571660193   
 34.E-9         2.            -2.             0.0172666429  -0.0172666429   0.571660445    0.571660445   
 35.E-9         2.            -2.             0.0175792532  -0.0175792532   0.571660205    0.571660205   
 36.E-9         2.            -2.             0.0172814723  -0.0172814723   0.571660433    0.571660433   
 37.E-9         2.            -2.             0.0175651202  -0.0175651202   0.571660216    0.571660216   
 38.E-9         2.            -2.             0.0172949282  -0.0172949282   0.571660423    0.571660423   
 39.E-9         2.            -2.             0.0175522968  -0.0175522968   0.571660226    0.571660226   
 40.E-9         2.            -2.             0.0173071376  -0.0173071376   0.571660414    0.571660414   
