.title mos7 inverter 
#          
 27.       
#           v(1)       v(2)       v(3)       v(4)       v(5)       v(6)       v(7)      
 0.         5.         0.         5.         4.656      5.         4.3833     5.        
 0.25       5.         0.25       5.         4.6379     5.         4.345      5.        
 0.5        5.         0.5        5.         4.6164     5.         4.2976     5.        
 0.75       5.         0.75       5.         4.5903     5.         4.237      4.9999    
 1.         5.         1.         4.9962     4.5534     4.9962     4.1551     4.9725    
 1.25       5.         1.25       4.9449     4.4416     4.9449     4.0333     4.6524    
 1.5        5.         1.5        4.8334     4.1831     4.8334     3.8079     4.1054    
 1.75       5.         1.75       4.6434     3.251      4.6434     3.3929     3.4404    
 2.         5.         2.         4.1824     1.5689     4.1824     2.9042     2.689     
 2.25       5.         2.25       0.50019    0.40069    0.50019    2.403      1.8867    
 2.5        5.         2.5        0.23364    0.21562    0.23364    1.9146     1.1001    
 2.75       5.         2.75       0.13874    0.13114    0.13874    1.4539     0.6237    
 3.         5.         3.         0.083035   0.079361   0.083035   1.033      0.47852   
 3.25       5.         3.25       0.046572   0.044802   0.046572   0.6636     0.4039    
 3.5        5.         3.5        0.022212   0.021459   0.022212   0.3558     0.35527   
 3.75       5.         3.75       0.0068481  0.0066359  0.0068481  0.12194    0.32024   
 4.         5.         4.         378.95u    368.u      378.95u    0.0073666  0.29353   
 4.25       5.         4.25       1.6913u    1.645u     1.6913u    34.874u    0.27237   
 4.5        5.         4.5        5.0867n    4.9542n    5.0867n    110.38n    0.25514   
 4.75       5.         4.75       1.2862n    1.2542n    1.2862n    29.232n    0.24081   
 5.         5.         5.         1.2259n    1.1967n    1.2259n    29.059n    0.22868   
#Time       v(1)       v(2)       v(3)       v(4)       v(5)       v(6)       v(7)      
 0.         5.         0.         5.         4.656      5.         4.3833     5.        
 100.p      5.         13.415p    5.         4.656      5.         4.3824     5.        
 200.p      5.        -16.178p    5.         4.656      5.         4.3844     5.        
 300.p      5.         18.155p    5.         4.656      5.         4.382      5.        
 400.p      5.        -20.711p    5.         4.656      5.         4.3848     5.        
 500.p      5.         23.653p    5.         4.656      5.         4.3815     5.        
 600.p      5.        -27.131p    5.         4.656      5.         4.3854     5.        
 700.p      5.         31.193p    5.         4.656      5.         4.3808     5.        
 800.p      5.        -25.655p    5.         4.656      5.         4.3853     5.        
 900.p      5.         21.249p    5.         4.656      5.         4.3817     5.        
 1.n        5.        -25.73p     5.         4.6561     5.         4.3853     5.        
 1.1n       5.         0.25       5.0055     4.6553     5.0004     4.3614     5.0219    
 1.2n       5.         0.5        5.006      4.6374     5.0011     4.3182     5.0255    
 1.3n       5.         0.75       5.0061     4.6116     5.0017     4.2588     5.0229    
 1.4n       5.         1.         5.0031     4.5795     5.0021     4.183      5.0014    
 1.5n       5.         1.25       4.9675     4.4822     5.0004     4.0678     4.7209    
 1.6n       5.         1.5        4.8693     4.2594     4.9936     3.8541     4.1782    
 1.7n       5.         1.75       4.695      3.5911     4.9727     3.4464     3.5254    
 1.8n       5.         2.         4.36       2.0239     4.942      2.968      2.7758    
 1.9n       5.         2.25       2.3306     0.50855    4.8976     2.4683     1.9741    
 2.n        5.         2.5        0.33473    0.22497    4.8376     1.9793     1.1736    
 2.1n       5.         2.75       0.12111    0.15347    4.7623     1.5167     0.65187   
 2.2n       5.         3.         0.11836    0.085479   4.6684     1.0922     0.49273   
 2.3n       5.         3.25       0.039893   0.057951   4.5527     0.71812    0.41736   
 2.4n       5.         3.5        0.043631   0.026537   4.4135     0.4047     0.36423   
 2.5n       5.         3.75      -952.76u    0.016258   4.2469     0.16433    0.32939   
 2.6n       5.         4.         0.016259   0.0047952  4.0566     0.036602   0.30046   
 2.7n       5.         4.25      -0.0055717  0.0077252  3.8439     0.021674   0.27956   
 2.8n       5.         4.5        0.012901   0.0043461  3.6104     0.025662   0.26095   
 2.9n       5.         4.75      -0.0039617  0.0067649  3.3554     0.022931   0.24685   
 3.n        5.         5.         0.010846   0.0041977  3.0788     0.02478~   0.2337~   
 3.1n       5.         5.         228.71u    86.749u    2.792      0.002173~  0.22879   
 3.2n       5.         5.        -209.72u    170.04u    2.5066    -0.001472~  0.22859   
 3.3n       5.         5.         234.55u   -163.u      2.2235     0.002173~  0.22879   
 3.4n       5.         5.        -234.65u    181.29u    1.9431    -0.002648~  0.22857   
 3.5n       5.         5.         260.89u   -181.41u    1.6664     0.003349~  0.2288    
 3.6n       5.         5.        -261.06u    201.21u    1.3956    -0.002269~  0.22856   
 3.7n       5.         5.         290.26u   -201.36u    1.1357     0.001537~  0.22882   
 3.8n       5.         5.        -290.44u    223.35u    0.8991~   -0.002269~  0.22854   
 3.9n       5.         5.         322.93u   -223.51u    0.6912~    0.002764~  0.22884   
 4.n        5.         5.        -323.1~u    247.92u    0.5163~   -0.001873~  0.22852   
 4.1n       5.         5.         359.28u   -248.1u     0.37573    0.002764~  0.22887   
 4.2n       5.         5.        -359.5u     275.19u    0.26722   -0.003368~  0.22849   
 4.3n       5.         5.         399.73u   -275.39u    0.18651    0.002282~  0.22889   
 4.4n       5.         5.        -399.96u    305.47u    0.12828   -0.001546~  0.22846   
 4.5n       5.         5.         444.72u   -305.68u    0.08726~   0.002282~  0.22892   
 4.6n       5.         5.        -444.98u    339.07u    0.05889~  -0.002781~  0.22843   
 4.7n       5.         5.         494.79u   -339.31u    0.03952~   0.001884~  0.22896   
 4.8n       5.         5.        -495.07u    376.38u    0.02636~  -0.002781~  0.22839   
 4.9n       5.         5.         550.5u    -376.63u    0.01755~   0.003388~  0.229     
 5.n        5.         5.        -550.79u    417.78u    0.01166~  -0.0022957  0.22834   
Gnucap   System status
iterations: op=9, dc=128, tran=329, fourier=0, total=525
transient timesteps: accepted=59, rejected=1, total=60
nodes: user=7, subckt=0, model=0, total=7
dctran density=59.2%, ac density=59.2%
