.title mos3 inverter 
#          
 27.       
#           v(1)       v(2)       v(3)       v(4)       v(5)       v(6)       v(7)      
 0.         5.         0.         5.         4.5941     5.         4.2966     5.        
 0.25       5.         0.25       5.         4.5687     5.         4.2523     5.        
 0.5        5.         0.5        5.         4.5397     5.         4.2014     5.        
 0.75       5.         0.75       4.9996     4.5058     4.9996     4.1421     4.9981    
 1.         5.         1.         4.9863     4.4525     4.9863     4.0719     4.9304    
 1.25       5.         1.25       4.95       4.3664     4.95       3.9868     4.766     
 1.5        5.         1.5        4.8833     4.2335     4.8833     3.8803     4.505     
 1.75       5.         1.75       4.7738     4.0264     4.7738     3.7408     4.1472    
 2.         5.         2.         4.5974     3.6708     4.5974     3.5426     3.6928    
 2.25       5.         2.25       4.2916     2.4863     4.2916     3.2017     3.1417    
 2.5        5.         2.5        1.7997     0.96441    1.7997     2.5062     2.4938    
 2.75       5.         2.75       0.70836    0.56397    0.70836    1.8583     1.7983    
 3.         5.         3.         0.40263    0.33902    0.40263    1.3072     1.4574    
 3.25       5.         3.25       0.22621    0.19589    0.22621    0.85279    1.2592    
 3.5        5.         3.5        0.11672    0.10288    0.11672    0.49504    1.1197    
 3.75       5.         3.75       0.05       0.044621   0.05       0.23399    1.0132    
 4.         5.         4.         0.013665   0.012309   0.013665   0.069615   0.92812   
 4.25       5.         4.25       352.14u    319.55u    352.14u    0.0019338  0.85788   
 4.5        5.         4.5        6.6046n    6.0301n    6.6046n    38.826n    0.79861   
 4.75       5.         4.75       6.1969n    5.6885n    6.1969n    38.826n    0.74772   
 5.         5.         5.         5.8366n    5.3834n    5.8366n    38.826n    0.70343   
#Time       v(1)       v(2)       v(3)       v(4)       v(5)       v(6)       v(7)       hidden(0)  method(C3) dis(2)     method(Mp2.Cgb) method(Mp2.Cgd) method(Mp2.Cgs)
 0.         5.         0.         5.         4.5941     5.         4.2966     5.         0.        -1.         0.        -1.        -1.        -1.        
 1.E-12     5.         0.         5.         4.5941     5.         4.2966     5.         0.         4.         0.         4.         4.         4.        
 2.E-12     5.         0.         5.         4.5941     5.         4.2966     5.         0.         2.         0.         2.         2.         2.        
 100.E-12   5.         0.         5.         4.5941     5.         4.2966     5.         0.         2.         0.         2.         2.         2.        
 200.E-12   5.         0.         5.         4.5941     5.         4.2966     5.         0.         2.         0.         2.         2.         2.        
 300.E-12   5.         0.         5.         4.5941     5.         4.2966     5.         0.         2.         0.         2.         2.         2.        
 400.E-12   5.         0.         5.         4.5941     5.         4.2966     5.         0.         2.         0.         2.         2.         2.        
 500.E-12   5.         0.         5.         4.5941     5.         4.2966     5.         0.         2.         0.         2.         2.         2.        
 600.E-12   5.         0.         5.         4.5941     5.         4.2966     5.         0.         2.         0.         2.         2.         2.        
 700.E-12   5.         0.         5.         4.5941     5.         4.2966     5.         0.         2.         0.         2.         2.         2.        
 800.E-12   5.         0.         5.         4.5941     5.         4.2966     5.         0.         2.         0.         2.         2.         2.        
 900.E-12   5.         0.         5.         4.5941     5.         4.2966     5.         0.         2.         0.         2.         2.         2.        
 1.E-9      5.         0.         5.         4.5941     5.         4.2966     5.         0.         2.         2.         2.         2.         2.        
 1.1E-9     5.         0.25       5.0018     4.5707     5.0001     4.2544     5.         0.         2.         0.         4.         4.         4.        
 1.2E-9     5.         0.5        5.002      4.5419     5.0003     4.2037     5.         0.         2.         0.         2.         2.         2.        
 1.25E-9    5.         0.625      5.002      4.5258     5.0004     4.1753     5.         0.         2.         0.         2.         2.         2.        
 1.3E-9     5.         0.75       5.0018     4.5082     5.0004     4.1447     4.9981     0.         2.         0.         2.         2.         2.        
 1.4E-9     5.         1.         4.9888     4.4554     5.         4.0747     4.9304     0.         2.         0.         2.         2.         2.        
 1.5E-9     5.         1.25       4.953      4.3699     4.9984     3.9901     4.766      0.         2.         0.         2.         2.         2.        
 1.6E-9     5.         1.5        4.887      4.238      4.9933     3.8841     4.505      0.         2.         0.         2.         2.         2.        
 1.7E-9     5.         1.75       4.7786     4.0328     4.9832     3.7456     4.1472     0.         2.         0.         2.         2.         2.        
 1.8E-9     5.         2.         4.6042     3.6817     4.9658     3.5487     3.6928     0.         2.         0.         2.         2.         2.        
 1.9E-9     5.         2.25       4.3038     2.5249     4.9405     3.2093     3.1417     0.         2.         0.         2.         2.         2.        
 2.E-9      5.         2.5        3.409      0.98437    4.9057     2.508      2.4938     0.         2.         0.         2.         2.         2.        
 2.1E-9     5.         2.75       0.76398    0.56829    4.8597     1.8565     1.8068     0.         2.         0.         2.         2.         2.        
 2.2E-9     5.         3.         0.38189    0.34672    4.8005     1.309      1.4629     0.         2.         0.         2.         2.         2.        
 2.3E-9     5.         3.25       0.2527     0.19776    4.7261     0.85099    1.2644     0.         2.         0.         2.         2.         2.        
 2.4E-9     5.         3.5        0.10267    0.10776    4.6339     0.49684    1.1232     0.         2.         0.         2.         2.         2.        
 2.5E-9     5.         3.75       0.068281   0.0457     4.5208     0.23218    1.0168     0.         2.         0.         2.         2.         2.        
 2.6E-9     5.         4.         0.0027828  0.0159     4.3841     0.071416   0.93073    0.         2.         0.         2.         2.         2.        
 2.7E-9     5.         4.25       0.014496   0.0010304  4.2225     133.59E-6  0.86066    0.         2.         0.         2.         2.         2.        
 2.8E-9     5.         4.5       -0.0088606  0.0029093  4.0357     0.0018002  0.80071    0.         2.         0.         2.         2.         2.        
 2.9E-9     5.         4.75       0.011739   686.05E-6  3.8231    -0.0018002  0.75       0.         2.         0.         2.         2.         2.        
 3.E-9      5.         5.        -0.0072809  0.0025447  3.5861     0.0018002  0.7052     0.         2.         2.         2.         2.         2.        
 3.1E-9     5.         5.        -50.453E-6  16.272E-6  3.3407     38.826E-9  0.70344    0.         2.         0.         4.         4.         4.        
 3.2E-9     5.         5.         49.077E-6  32.336E-6  3.1017     38.826E-9  0.70345    0.         2.         0.         2.         2.         2.        
 3.3E-9     5.         5.        -50.453E-6 -31.912E-6  2.8704     38.826E-9  0.70341    0.         2.         0.         2.         2.         2.        
 3.4E-9     5.         5.         51.816E-6  32.745E-6  2.6481     38.826E-9  0.70345    0.         2.         0.         2.         2.         2.        
 3.5E-9     5.         5.        -53.192E-6 -33.545E-6  2.4356     38.826E-9  0.70341    0.         2.         0.         2.         2.         2.        
 3.6E-9     5.         5.         54.631E-6  34.388E-6  2.2339     38.826E-9  0.70345    0.         2.         0.         2.         2.         2.        
 3.7E-9     5.         5.        -56.083E-6 -35.229E-6  2.0432     38.826E-9  0.7034     0.         2.         0.         2.         2.         2.        
 3.8E-9     5.         5.         57.598E-6  36.114E-6  1.8641     38.826E-9  0.70346    0.         2.         0.         2.         2.         2.        
 3.9E-9     5.         5.        -59.13E-6  -36.998E-6  1.6966     38.826E-9  0.7034     0.         2.         0.         2.         2.         2.        
 4.E-9      5.         5.         60.727E-6  37.927E-6  1.5407     38.826E-9  0.70346    0.         2.         0.         2.         2.         2.        
 4.1E-9     5.         5.        -62.342E-6 -38.856E-6  1.3962     38.826E-9  0.7034     0.         2.         0.         2.         2.         2.        
 4.2E-9     5.         5.         64.026E-6  39.831E-6  1.2629     38.826E-9  0.70346    0.         2.         0.         2.         2.         2.        
 4.3E-9     5.         5.        -65.73E-6  -40.808E-6  1.1402     38.826E-9  0.7034     0.         2.         0.         2.         2.         2.        
 4.4E-9     5.         5.         67.504E-6  41.831E-6  1.0278     38.826E-9  0.70346    0.         2.         0.         2.         2.         2.        
 4.5E-9     5.         5.        -69.301E-6 -42.857E-6  0.92511    38.826E-9  0.7034     0.         2.         0.         2.         2.         2.        
 4.6E-9     5.         5.         71.171E-6  43.931E-6  0.83153    38.826E-9  0.70346    0.         2.         0.         2.         2.         2.        
 4.7E-9     5.         5.        -73.066E-6 -45.009E-6  0.7465     38.826E-9  0.7034     0.         2.         0.         2.         2.         2.        
 4.8E-9     5.         5.         75.038E-6  46.137E-6  0.66941    38.826E-9  0.70346    0.         2.         0.         2.         2.         2.        
 4.9E-9     5.         5.        -77.036E-6 -47.269E-6  0.59966    38.826E-9  0.7034     0.         2.         0.         2.         2.         2.        
 5.E-9      5.         5.         79.114E-6  48.453E-6  0.53669    38.826E-9  0.70346    0.         2.         0.         2.         2.         2.        
Gnucap   System status
iterations: op=9, dc=148, tran=258, fourier=0, total=781
transient timesteps: accepted=108, rejected=0, total=108
nodes: user=7, subckt=0, model=0, total=7
dctran density=59.2%, ac density=59.2%
