.title na2 
#           v(1)       v(2)       v(4)       v(5)       z(5)       iter(0)   
 0.         0.         0.         0.         0.         1.E+12     0.        
-1.         5.         0.         2.6869     5.8842u    996.24Meg  1.        
-2.         5.         0.         154.84     6.2334u    996.23Meg  2.        
-3.         5.         0.         4.991      244.14n    996.23Meg  3.        
-4.         5.         0.         5.         261.7n     996.23Meg  4.        
-5.         5.         0.         5.         261.7n     996.23Meg  5.        
-6.         5.         0.         5.         261.7n     996.23Meg  6.        
-7.         5.         0.         5.         261.7n     996.23Meg  7.        
 27.        5.         0.         5.         261.7n     996.23Meg  8.        
#           region(XI10.Mp1.Ddb) region(XI10.Mp2.Ddb) region(XI10.Mn1.Ddb) region(XI10.Mn2.Ddb) region(XI10.Mn1.Dsb)
 0.        -1.        -1.        -1.        -1.        -1.        
-1.        -1.        -1.        -1.        -1.        -1.        
-2.        -1.        -1.        -1.        -1.        -1.        
-3.         1.         1.        -1.        -1.        -1.        
-4.        -1.        -1.        -1.        -1.        -1.        
-5.        -1.        -1.        -1.        -1.        -1.        
-6.        -1.        -1.        -1.        -1.        -1.        
-7.        -1.        -1.        -1.        -1.        -1.        
 27.       -1.        -1.        -1.        -1.        -1.        
#           V(XI10.Mp1.Ddb) V(XI10.Mp2.Ddb) V(XI10.Mn1.Ddb) V(XI10.Mn2.Ddb) V(XI10.Mn1.Dsb)
 0.         0.         0.         0.         0.         0.        
-1.        -2.3131    -2.3131    -2.6869    -5.8842u   -5.8842u   
-2.         149.84     149.84    -154.84    -6.2334u   -6.2334u   
-3.        -0.0089704 -0.0089704 -4.991     -244.14n   -244.14n   
-4.         28.028u    28.028u   -5.        -261.7n    -261.7n    
-5.        -3.4216n   -3.4216n   -5.        -261.7n    -261.7n    
-6.        -3.2751n   -3.2751n   -5.        -261.7n    -261.7n    
-7.        -3.2751n   -3.2751n   -5.        -261.7n    -261.7n    
 27.       -3.2751n   -3.2751n   -5.        -261.7n    -261.7n    
#           I(XI10.Mp1.Ddb) I(XI10.Mp2.Ddb) I(XI10.Mn1.Ddb) I(XI10.Mn2.Ddb) I(XI10.Mn1.Dsb)
 0.         0.         0.         0.         0.         0.        
-1.        -3.2074p   -3.2074p   -3.7258p   -8.159E-18 -8.159E-18 
-2.         149.83p    149.83p   -154.85p   -8.643E-18 -8.643E-18 
-3.        -46.453u   -46.453u   -5.001p    -338.8E-21 -338.8E-21 
-4.        -443.2E-18 -443.2E-18 -5.01p     -362.9E-21 -362.9E-21 
-5.        -10.62E-21 -10.62E-21 -5.01p     -362.9E-21 -362.9E-21 
-6.        -4.541E-21 -4.541E-21 -5.01p     -362.9E-21 -362.9E-21 
-7.        -4.541E-21 -4.541E-21 -5.01p     -362.9E-21 -362.9E-21 
 27.       -4.541E-21 -4.541E-21 -5.01p     -362.9E-21 -362.9E-21 
#Time       v(2)       v(4)       v(5)       iter(0)   
 0.         0.         5.         261.7n     8.        
 1.p        0.         5.         261.7n     3.        
 2.p        0.         5.         261.7n     3.        
 3.p        0.         5.         261.7n     3.        
 4.p        0.         5.         261.7n     3.        
 5.p        0.         5.         261.7n     3.        
 100.p      0.         5.         261.7n     3.        
 200.p      0.         5.         261.7n     3.        
 300.p      0.         5.         261.7n     3.        
 400.p      0.         5.         261.7n     3.        
 500.p      0.         5.         261.7n     3.        
 600.p      0.         5.         261.7n     3.        
 700.p      0.         5.         261.7n     3.        
 800.p      0.         5.         261.7n     3.        
 900.p      0.         5.         261.7n     3.        
 1.n        1.f        5.         261.7n     3.        
 1.1n       0.25       5.0019     0.24999    5.        
 1.2n       0.5        5.0053     0.49999    5.        
 1.3n       0.75       5.0079     0.74996    5.        
 1.4n       1.         5.01       1.0014     5.        
 1.5n       1.25       5.0118     0.99593    5.        
 1.6n       1.5        5.0129     0.26179    8.        
 1.7n       1.75       5.0084     0.19554    7.        
 1.8n       2.         4.9955     0.26719    5.        
 1.9n       2.25       4.9766     0.29503    5.        
 2.n        2.5        4.9497     0.34524    5.        
 2.1n       2.75       4.9141     0.38181    5.        
 2.2n       3.         4.8677     0.42614    5.        
 2.3n       3.25       4.8083     0.4646     5.        
 2.4n       3.5        4.7316     0.50628    5.        
 2.5n       3.75       4.6343     0.5449     4.        
 2.6n       4.         4.5173     0.5849     5.        
 2.7n       4.25       4.3818     0.6231     5.        
 2.8n       4.5        4.2297     0.66177    4.        
 2.9n       4.75       4.0607     0.6991     4.        
 3.n        5.         3.8746     0.73625    4.        
 3.1n       5.         3.6782     0.72324    4.        
 3.2n       5.         3.481      0.71839    4.        
 3.3n       5.         3.2845     0.7151     4.        
 3.4n       5.         3.0886     0.71014    4.        
 3.5n       5.         2.8936     0.70587    4.        
 3.6n       5.         2.6995     0.70016    4.        
 3.7n       5.         2.5064     0.6942     4.        
 3.8n       5.         2.3145     0.68626    5.        
 3.9n       5.         2.1245     0.67617    5.        
 4.n        5.         1.9371     0.661      5.        
 4.1n       5.         1.7536     0.63776    5.        
 4.2n       5.         1.5759     0.60487    5.        
 4.3n       5.         1.4057     0.56471    5.        
 4.4n       5.         1.2445     0.51939    5.        
 4.5n       5.         1.0937     0.4713     5.        
 4.6n       5.         0.95426    0.42227    5.        
 4.7n       5.         0.82677    0.37407    5.        
 4.8n       5.         0.71157    0.32791    5.        
 4.9n       5.         0.6086     0.2848     5.        
 5.n        5.         0.51754    0.24526    5.        
 5.1n       5.         0.43779    0.20967    5.        
 5.2n       5.         0.36858    0.17806    5.        
 5.3n       5.         0.309      0.15036    5.        
 5.4n       5.         0.25809    0.12633    5.        
 5.5n       5.         0.21488    0.10571    5.        
 5.6n       5.         0.1784     0.088113   4.        
 5.7n       5.         0.14777    0.073231   4.        
 5.8n       5.         0.12214    0.060695   4.        
 5.9n       5.         0.10079    0.050202   4.        
 6.n        5.         0.083048   0.041439   4.        
 6.1n       5.         0.068348   0.03416    4.        
 6.2n       5.         0.056194   0.028118   4.        
 6.3n       5.         0.046163   0.023125   4.        
 6.4n       5.         0.037896   0.018997   4.        
 6.5n       5.         0.031092   0.0156     4.        
 6.6n       5.         0.025497   0.012798   4.        
 6.7n       5.         0.020901   0.010498   4.        
 6.8n       5.         0.017128   0.0086044  4.        
 6.9n       5.         0.014033   0.007053   4.        
 7.n        5.         0.011494   0.0057772  4.        
 7.1n       5.         0.009413   0.0047335  4.        
 7.2n       5.         0.0077077  0.0038754  4.        
 7.3n       5.         0.006310~  0.0031744  4.        
 7.4n       5.         0.005166~  0.0025981  4.        
 7.5n       5.         0.004228~  0.0021278  4.        
 7.6n       5.         0.003461~  0.001741   4.        
 7.7n       5.         0.002833~  0.0014258  4.        
 7.8n       5.         0.002318~  0.0011664  4.        
 7.9n       5.         0.001897~  955.23u    4.        
 8.n        5.         0.001553~  781.2~u    4.        
 8.1n       5.         0.001271   639.87u    4.        
 8.2n       5.         0.0010402  523.18u    4.        
 8.3n       5.         851.22u    428.59u    4.        
 8.4n       5.         696.59u    350.33u    4.        
 8.5n       5.         570.04u    287.06u    4.        
 8.6n       5.         466.48u    234.57u    4.        
 8.7n       5.         381.7~u    192.27u    4.        
 8.8n       5.         312.3~u    157.05u    4.        
 8.9n       5.         255.6~u    128.78u    4.        
 9.n        5.         209.1~u    105.14u    4.        
 9.1n       5.         171.1~u    86.256u    4.        
 9.2n       5.         140.0~u    70.38~u    4.        
 9.3n       5.         114.6~u    57.77~u    4.        
 9.4n       5.         93.79~u    47.11~u    4.        
 9.5n       5.         76.74~u    38.70~u    4.        
 9.6n       5.         62.80~u    31.53~u    4.        
 9.7n       5.         51.39~u    25.93~u    4.        
 9.8n       5.         42.05~u    21.10~u    4.        
 9.9n       5.         34.41~u    17.37~u    4.        
 10.n       5.         28.16~u    14.12~u    4.        
Gnucap   System status
iterations: op=8, dc=0, tran=452, fourier=0, total=590
transient timesteps: accepted=106, rejected=0, total=106
nodes: user=4, subckt=0, model=0, total=4
dctran density=87.5%, ac density=87.5%
