#Time       v(1)       v(2)       v(3)       disc(1)    disc(2)    s0(sw)     s1(sw)     method(c1) hidden(0) 
 0.         0.         0.         0.         0.         0.         0.         0.        -1.         1.        
 0.06       0.         0.         0.         0.         0.         0.         0.         4.         1.        
 0.12       0.         0.         0.         0.         0.         0.         0.         2.         1.        
 0.18       0.         0.         0.         0.         0.         0.         0.         2.         1.        
 0.24       0.         0.         0.         0.         0.         0.         0.         2.         1.        
 0.3        0.         0.         0.         0.         0.         0.         0.         2.         1.        
 1.         0.         0.         0.         2.         0.         0.         0.         2.         1.        
 1.5        1.         3.5E-9     2.5E-9     2.         2.         0.         0.         2.         2.        
 1.5        1.         1.         122.5E-9   0.         0.         1.         0.         4.         1.        
 1.5        1.         1.         188.5E-9   0.         0.         1.         1.         2.         1.        
 1.5        1.         1.         236.34E-6  0.         0.         1.         1.         2.         1.        
 1.5002     1.0003     1.0003     0.0016824  0.         0.         1.         1.         2.         1.        
 1.505      1.01       1.01       0.048841   0.         0.         1.         1.         2.         1.        
 1.5203     1.0405     1.0405     0.18752    0.         0.         1.         1.         2.         1.        
 1.5469     1.0939     1.0939     0.3945     0.         0.         1.         1.         2.         1.        
 1.5736     1.1472     1.1472     0.56532    0.         0.         1.         1.         2.         1.        
 1.6188     1.2375     1.2375     0.79636    0.         0.         1.         1.         2.         1.        
 1.6639     1.3279     1.3279     0.97556    0.         0.         1.         1.         2.         1.        
 1.7091     1.4182     1.4182     1.122      0.         0.         1.         1.         2.         1.        
 1.7857     1.5715     1.5715     1.3285     0.         0.         1.         1.         2.         1.        
 1.8623     1.7247     1.7247     1.5056     0.         0.         1.         1.         2.         1.        
 1.9877     1.9755     1.9755     1.7711     0.         0.         1.         1.         2.         1.        
 2.1131     2.2262     2.2262     2.0252     0.         0.         1.         1.         2.         1.        
 2.356      2.7121     2.7121     2.5122     0.         0.         1.         1.         2.         1.        
 2.7204     3.4409     3.4409     3.2409     0.         0.         1.         1.         2.         1.        
 3.         4.         4.         3.8        2.         0.         1.         1.         2.         1.        
 3.1        4.         4.         3.9        0.         0.         1.         1.         4.         3.        
 3.2        4.         4.         3.9667     0.         0.         1.         1.         2.         1.        
 3.48       4.         4.         4.0056     0.         0.         1.         1.         2.         1.        
 3.9        4.         4.         3.998      0.         0.         1.         1.         2.         1.        
 4.32       4.         4.         4.0007     0.         0.         1.         1.         2.         1.        
 4.74       4.         4.         3.9998     0.         0.         1.         1.         2.         1.        
 5.37       4.         4.         4.0001     0.         0.         1.         1.         2.         1.        
 6.         4.         4.         3.9999     0.         0.         1.         1.         2.         1.        
Gnucap   System status
iterations: op=0, dc=0, tran=136, fourier=0, total=173
transient timesteps: accepted=34, rejected=3, total=37
nodes: user=3, subckt=0, model=0, total=3
dctran density=77.8%, ac density=77.8%
#Time       v(1)       v(2)       v(3)       disc(1)    disc(2)    s0(sw)     s1(sw)     method(c1) hidden(0) 
 0.         0.         0.         0.         0.         0.         0.         0.        -1.         1.        
 12.E-9     0.         0.         0.         0.         0.         0.         0.         2.         1.        
 24.E-9     0.         0.         0.         0.         0.         0.         0.         2.         1.        
 36.E-9     0.         0.         0.         0.         0.         0.         0.         2.         1.        
 48.E-9     0.         0.         0.         0.         0.         0.         0.         2.         1.        
 60.E-9     0.         0.         0.         0.         0.         0.         0.         2.         1.        
 1.         0.         0.         0.         2.         0.         0.         0.         2.         1.        
 1.5        1.         3.5E-9     2.5E-9     2.         2.         0.         0.         2.         2.        
 1.5        1.         1.         62.5E-9    0.         0.         1.         0.         2.         1.        
 1.5        1.         1.         128.5E-9   0.         0.         1.         1.         2.         1.        
 1.5        1.         1.         194.5E-9   0.         0.         1.         1.         2.         1.        
 1.5        1.         1.         260.5E-9   0.         0.         1.         1.         2.         1.        
 1.5001     1.0001     1.0001     678.91E-6  0.         0.         1.         1.         2.         1.        
 1.5005     1.0011     1.0011     0.0052556  0.         0.         1.         1.         2.         1.        
 1.5068     1.0135     1.0135     0.065733   0.         0.         1.         1.         2.         1.        
 1.524      1.0479     1.0479     0.21869    0.         0.         1.         1.         2.         1.        
 1.5525     1.105      1.105      0.43273    0.         0.         1.         1.         2.         1.        
 1.581      1.162      1.162      0.60758    0.         0.         1.         1.         2.         1.        
 1.628      1.256      1.256      0.83649    0.         0.         1.         1.         2.         1.        
 1.675      1.35       1.35       1.0141     0.         0.         1.         1.         2.         1.        
 1.722      1.444      1.444      1.1598     0.         0.         1.         1.         2.         1.        
 1.8012     1.6025     1.6025     1.3661     0.         0.         1.         1.         2.         1.        
 1.8805     1.7609     1.7609     1.5452     0.         0.         1.         1.         2.         1.        
 2.0133     2.0267     2.0267     1.8235     0.         0.         1.         1.         2.         1.        
 2.1462     2.2925     2.2925     2.0918     0.         0.         1.         1.         2.         1.        
 2.4032     2.8063     2.8063     2.6064     0.         0.         1.         1.         2.         1.        
 2.8028     3.6056     3.6056     3.4056     0.         0.         1.         1.         2.         1.        
 3.         4.         4.         3.8        2.         0.         1.         1.         2.         1.        
 3.375      4.         4.         4.0609     0.         0.         1.         1.         2.         2.        
 3.6375     4.         4.         3.9918     0.         0.         1.         1.         2.         1.        
 4.0312     4.         4.         4.0027     0.         0.         1.         1.         2.         1.        
 4.3125     4.         4.         3.9995     0.         0.         1.         1.         2.         1.        
 4.7344     4.         4.         4.0002     0.         0.         1.         1.         2.         1.        
 5.3672     4.         4.         3.9999     0.         0.         1.         1.         2.         1.        
 6.         4.         4.         4.         0.         0.         1.         1.         2.         1.        
Gnucap   System status
iterations: op=0, dc=0, tran=131, fourier=0, total=341
transient timesteps: accepted=69, rejected=5, total=74
nodes: user=3, subckt=0, model=0, total=3
dctran density=77.8%, ac density=77.8%
