#           v(nctrl)   v(c1)     
 0.         2.1        2.1       
#           v(nctrl)   v(c1)     
 0.         2.1        2.1       
#TTime      v(nctrl)   hidden(0)  ttmeth(c1) ttstep(c1) ttord(c1)  ttstdt(c1) ttdelta(c1) ttgain(0)  control(0)
 0.         2.1        0.         0.         NaN        0.         NaN        NaN        ??         100.      
 100.E-6    2.0~       1.         0.         0.         0.        -20.99E-6  -2.099E-9   ??         100.      
 200.E-6    2.0~       1.         1.         0.0069058  1.        -20.~E-6   -2.~E-9     ??         100.      
 400.E-6    2.0~       1.         2.         100.E-~    2.        -20.~E-6   -2.~E-9     ??         100.      
 799.E-6    2.0~       3.         3.         219.7E-6   3.        -20.~E-6   -2.~E-9     ??         100.      
 0.001599   2.0~       3.         3.         383.1E-6   3.        -20.~E-6   -2.~E-9     ??         100.      
 0.0031276  2.0~       3.         3.         841.66E-6  3.        -20.~E-6   -2.~E-9     ??         100.      
 0.0063276  1.9~       3.         3.         0.0016~    3.        -19.~E-6   -1.~E-9     ??         100.      
 0.012728   1.8~       3.         3.         0.0034~    3.        -18.~E-6   -1.~E-9     ??         100.      
 0.025528   1.6~       3.         3.         0.0064~    3.        -16.~E-6   -1.~E-9     ??         100.      
 0.051128   1.2~       3.         3.         0.0139~    3.        -12.~E-6   -1.~E-9     ??         100.      
 0.10233    0.7~       3.         3.         0.0221~    3.        -7.5~E-6   -754.8E-12  ??         100.      
 0.20473    0.2~       5.         3.         0.0044~    3.        -2.7~E-6   -270.9E-12  ??         100.      
 0.40953    0.0~       11.        3.         0.0186~    3.        -349.14E-9 -34.91E-12  ??         100.      
 0.81913    579.46E-6  8.         3.         0.1063~    3.        -5.7975E-9 -579.8E-15  ??         100.      
 1.         94.867E-6  2.         3.         0.0969~    3.        -949.1E-12 -94.91E-15  ??         100.      
#TTime      v(nctrl)   hidden(0)  ttmeth(c1) ttstep(c1) ttord(c1)  ttstdt(c1) ttdelta(c1) ttgain(0)  control(0)
 1.         0.         0.         0.         NaN        0.         NaN        NaN        ??         100.      
#           v(nctrl)   v(c1)     
 0.         2.1        2.1       
#TTime      v(nctrl)   hidden(0)  ttmeth(c1) ttstep(c1) ttord(c1)  ttstdt(c1) ttdelta(c1) ttgain(0)  control(0)
 0.         2.1        0.         0.         NaN        0.         NaN        NaN        ??         100.      
 100.E-6    2.0~       1.         0.         0.         0.        -20.99E-6  -2.099E-9   ??         100.      
 200.E-6    2.0~       1.         1.         0.0069058  1.        -20.~E-6   -2.~E-9     ??         100.      
 350.E-6    2.0~       1.         2.         100.E-6    2.        -20.~E-6   -2.~E-9     ??         100.      
 575.E-6    2.0~       2.         3.         162.5E-6   3.        -20.~E-6   -2.~E-9     ??         100.      
 912.5E-6   2.0~       2.         3.         227.5E-6   3.        -20.~E-6   -2.~E-9     ??         100.      
 0.0014188  2.0~       2.         3.         362.38E-6  3.        -20.~E-6   -2.~E-9     ??         100.      
 0.0021781  2.0~       2.         3.         516.1E-6   3.        -20.~E-6   -2.~E-9     ??         100.      
 0.0033172  2.0~       2.         3.         809.85E-6  3.        -20.~E-6   -2.~E-9     ??         100.      
 0.0050258  1.9~       2.         3.         0.0011684  3.        -19.~E-6   -1.~E-9     ??         100.      
 0.0075887  1.9~       2.         3.         0.0018129  3.        -19.~E-6   -1.~E-9     ??         100.      
 0.011433   1.8~       2.         3.         0.0026~    3.        -18.~E-6   -1.~E-9     ??         100.      
 0.0172     1.7~       2.         3.         0.0040~    3.        -17.~E-6   -1.~E-9     ??         100.      
 0.025849   1.6~       2.         3.         0.0059~    3.        -16.~E-6   -1.~E-9     ??         100.      
 0.038824   1.4~       2.         3.         0.0091~    3.        -14.~E-6   -1.~E-9     ??         100.      
 0.058286   1.1~       2.         3.         0.0134~    3.        -11.~E-6   -1.~E-9     ??         100.      
 0.087479   0.8~       2.         3.         0.0204~    3.        -8.7566E-6 -875.7E-12  ??         100.      
 0.13127    0.5~       3.         3.         927.82E-6  3.        -5.6503E-6 -565.E-12   ??         100.      
 0.19695    0.2~       12.        3.         0.0173~    3.        -2.9286E-6 -292.9E-12  ??         100.      
 0.29548    0.1~       4.         3.         0.0380~    3.        -1.0928E-6 -109.3E-12  ??         100.      
 0.44327    0.0~       4.         3.         0.0169~    3.        -249.11E-9 -24.91E-12  ??         100.      
 0.66495    0.0027098  7.         3.         0.0065~    3.        -27.112E-9 -2.711E-12  ??         100.      
 0.99748    97.293E-6  11.        3.         0.070~     3.        -973.4E-12 -97.34E-15  ??         100.      
 1.         94.867E-6  1.         3.         0.0032~    3.        -949.1E-12 -94.91E-15  ??         100.      
Gnucap   System status
iterations: op=0, dc=3, tran=108, fourier=0, total=5701
transient timesteps: accepted=1888, rejected=0, total=1888
twotime timesteps: accepted=71, rejected=0, total=124
nodes: user=1, subckt=0, model=0, total=1
dctran density=100.0%, ac density=100.0%
#TTime      v(nctrl)   hidden(0)  ttmeth(c1) ttstep(c1) ttord(c1)  ttstdt(c1) ttdelta(c1) ttgain(0)  control(0)
 1.         0.         0.         0.         NaN        0.         NaN        NaN        ??         100.      
#           v(nctrl)   v(c1)     
 0.         2.1        2.1       
#TTime      v(nctrl)   hidden(0)  ttmeth(c1) ttstep(c1) ttord(c1)  ttstdt(c1) ttdelta(c1) ttgain(0)  control(0)
 0.         2.1        0.         0.         NaN        0.         NaN        NaN        ??         100.      
 100.E-6    2.0979     1.         0.         0.         0.        -20.99E-6  -2.099E-9   ??         100.      
 200.E-6    2.0958     1.         1.         0.0069058  1.        -20.969E-6 -2.0969E-9  ??         100.      
 305.E-6    2.0936     1.         2.         100.E-6    2.        -20.947E-6 -2.0947E-9  ??         100.      
 405.E-6    2.0915     1.         3.         130.E-6    3.        -20.926E-6 -2.0926E-9  ??         100.      
 520.76E-6  2.0891     1.         3.         150.49E-6  3.        -20.901E-6 -2.0901E-9  ??         100.      
 642.31E-6  2.0866     1.         3.         158.02E-6  3.        -20.876E-6 -2.0876E-9  ??         100.      
 769.94E-6  2.0839     1.         3.         165.92E-6  3.        -20.849E-6 -2.0849E-9  ??         100.      
 903.95E-6  2.0811     1.         3.         174.21E-6  3.        -20.821E-6 -2.0821E-9  ??         100.      
 0.0010447  2.0782     1.         3.         182.92E-6  3.        -20.792E-6 -2.0792E-9  ??         100.      
 0.0011924  2.0751     1.         3.         192.07E-6  3.        -20.761E-6 -2.0761E-9  ??         100.      
 0.0013475  2.0719     1.         3.         201.67E-6  3.        -20.729E-6 -2.0729E-9  ??         100.      
 0.0015104  2.0685     1.         3.         211.76E-6  3.        -20.696E-6 -2.0696E-9  ??         100.      
 0.0016815  2.065      1.         3.         222.34E-6  3.        -20.66E-6  -2.066E-9   ??         100.      
 0.001861   2.0613     1.         3.         233.46E-6  3.        -20.623E-6 -2.0623E-9  ??         100.      
 0.0020496  2.0574     1.         3.         245.13E-6  3.        -20.584E-6 -2.0584E-9  ??         100.      
 0.0022476  2.0533     1.         3.         257.39E-6  3.        -20.543E-6 -2.0543E-9  ??         100.      
 0.0024555  2.0491     1.         3.         270.26E-6  3.        -20.501E-6 -2.0501E-9  ??         100.      
 0.0026738  2.0446     1.         3.         283.77E-6  3.        -20.456E-6 -2.0456E-9  ??         100.      
 0.002903   2.0399     1.         3.         297.96E-6  3.        -20.409E-6 -2.0409E-9  ??         100.      
 0.0031437  2.035      1.         3.         312.86E-6  3.        -20.36E-6  -2.036E-9   ??         100.      
 0.0033963  2.0299     1.         3.         328.5E-6   3.        -20.309E-6 -2.0309E-9  ??         100.      
 0.0036617  2.0245     1.         3.         344.93E-6  3.        -20.255E-6 -2.0255E-9  ??         100.      
 0.0039403  2.0188     1.         3.         362.18E-6  3.        -20.199E-6 -2.0199E-9  ??         100.      
 0.0042328  2.0129     1.         3.         380.28E-6  3.        -20.14E-6  -2.014E-9   ??         100.      
 0.0045399  2.0068     1.         3.         399.3E-6   3.        -20.078E-6 -2.0078E-9  ??         100.      
 0.0048625  2.0003     1.         3.         419.26E-6  3.        -20.013E-6 -2.0013E-9  ??         100.      
 0.0052011  1.9935     1.         3.         440.23E-6  3.        -19.945E-6 -1.9945E-9  ??         100.      
 0.0055567  1.9865     1.         3.         462.24E-6  3.        -19.875E-6 -1.9875E-9  ??         100.      
 0.00593    1.9791     1.         3.         485.35E-6  3.        -19.801E-6 -1.9801E-9  ??         100.      
 0.006322   1.9713     1.         3.         509.62E-6  3.        -19.723E-6 -1.9723E-9  ??         100.      
 0.0067336  1.9632     1.         3.         535.1E-6   3.        -19.642E-6 -1.9642E-9  ??         100.      
 0.0071658  1.9547     1.         3.         561.85E-6  3.        -19.557E-6 -1.9557E-9  ??         100.      
 0.0076196  1.9459     1.         3.         589.95E-6  3.        -19.469E-6 -1.9469E-9  ??         100.      
 0.0080961  1.9366     1.         3.         619.44E-6  3.        -19.376E-6 -1.9376E-9  ??         100.      
 0.0085964  1.927      1.         3.         650.41E-6  3.        -19.279E-6 -1.9279E-9  ??         100.      
 0.0091218  1.9169     1.         3.         682.94E-6  3.        -19.178E-6 -1.9178E-9  ??         100.      
 0.0096734  1.9063     1.         3.         717.08E-6  3.        -19.073E-6 -1.9073E-9  ??         100.      
 0.010253   1.8953     1.         3.         752.94E-6  3.        -18.963E-6 -1.8963E-9  ??         100.      
 0.010861   1.8838     1.         3.         790.58E-6  3.        -18.848E-6 -1.8848E-9  ??         100.      
 0.011499   1.8718     1.         3.         830.11E-6  3.        -18.727E-6 -1.8727E-9  ??         100.      
 0.01217    1.8593     1.         3.         871.62E-6  3.        -18.602E-6 -1.8602E-9  ??         100.      
 0.012874   1.8463     1.         3.         915.2E-6   3.        -18.472E-6 -1.8472E-9  ??         100.      
 0.013613   1.8326     1.         3.         960.96E-6  3.        -18.336E-6 -1.8336E-9  ??         100.      
 0.014389   1.8185     1.         3.         0.001009   3.        -18.194E-6 -1.8194E-9  ??         100.      
 0.015204   1.8037     1.         3.         0.0010595  3.        -18.046E-6 -1.8046E-9  ??         100.      
 0.01606    1.7883     1.         3.         0.0011124  3.        -17.892E-6 -1.7892E-9  ??         100.      
 0.016958   1.7723     1.         3.         0.0011681  3.        -17.732E-6 -1.7732E-9  ??         100.      
 0.017902   1.7557     1.         3.         0.0012265  3.        -17.566E-6 -1.7566E-9  ??         100.      
 0.018892   1.7384     1.         3.         0.0012878  3.        -17.392E-6 -1.7392E-9  ??         100.      
 0.019932   1.7204     1.         3.         0.0013522  3.        -17.212E-6 -1.7212E-9  ??         100.      
 0.021025   1.7017     1.         3.         0.0014198  3.        -17.025E-6 -1.7025E-9  ??         100.      
 0.022171   1.6823     1.         3.         0.0014908  3.        -16.831E-6 -1.6831E-9  ??         100.      
 0.023375   1.6621     1.         3.         0.0015653  3.        -16.63E-6  -1.663E-9   ??         100.      
 0.02464    1.6412     1.         3.         0.0016436  3.        -16.42E-6  -1.642E-9   ??         100.      
 0.025967   1.6196     1.         3.         0.0017257  3.        -16.204E-6 -1.6204E-9  ??         100.      
 0.027361   1.5971     1.         3.         0.001812   3.        -15.979E-6 -1.5979E-9  ??         100.      
 0.028825   1.5739     1.         3.         0.0019026  3.        -15.747E-6 -1.5747E-9  ??         100.      
 0.030361   1.5499     1.         3.         0.0019978  3.        -15.507E-6 -1.5507E-9  ??         100.      
 0.031975   1.5251     1.         3.         0.0020977  3.        -15.259E-6 -1.5259E-9  ??         100.      
 0.033669   1.4995     1.         3.         0.0022025  3.        -15.002E-6 -1.5002E-9  ??         100.      
 0.035448   1.473      1.         3.         0.0023127  3.        -14.737E-6 -1.4737E-9  ??         100.      
 0.037316   1.4457     1.         3.         0.0024283  3.        -14.465E-6 -1.4465E-9  ??         100.      
 0.039277   1.4176     1.         3.         0.0025497  3.        -14.184E-6 -1.4184E-9  ??         100.      
 0.041337   1.3887     1.         3.         0.0026772  3.        -13.894E-6 -1.3894E-9  ??         100.      
 0.043499   1.359      1.         3.         0.0028111  3.        -13.597E-6 -1.3597E-9  ??         100.      
 0.04577    1.3285     1.         3.         0.0029516  3.        -13.292E-6 -1.3292E-9  ??         100.      
 0.048154   1.2972     1.         3.         0.0030992  3.        -12.978E-6 -1.2978E-9  ??         100.      
 0.050657   1.2651     1.         3.         0.0032541  3.        -12.657E-6 -1.2657E-9  ??         100.      
 0.053285   1.2323     1.         3.         0.0034169  3.        -12.329E-6 -1.2329E-9  ??         100.      
 0.056045   1.1987     1.         3.         0.0035877  3.        -11.993E-6 -1.1993E-9  ??         100.      
 0.058943   1.1645     1.         3.         0.0037671  3.        -11.65E-6  -1.165E-9   ??         100.      
 0.061985   1.1295     1.         3.         0.0039554  3.        -11.301E-6 -1.1301E-9  ??         100.      
 0.06518    1.094      1.         3.         0.0041532  3.        -10.946E-6 -1.0946E-9  ??         100.      
 0.068535   1.0579     1.         3.         0.0043609  3.        -10.584E-6 -1.0584E-9  ??         100.      
 0.072057   1.0213     1.         3.         0.0045789  3.        -10.218E-6 -1.0218E-9  ??         100.      
 0.075755   0.98417    1.         3.         0.0048079  3.        -9.8466E-6 -984.7E-12  ??         100.      
 0.079638   0.94667    1.         3.         0.0050482  3.        -9.4714E-6 -947.1E-12  ??         100.      
 0.083716   0.90883    1.         3.         0.0053007  3.        -9.0928E-6 -909.3E-12  ??         100.      
 0.087997   0.87072    1.         3.         0.0055657  3.        -8.7116E-6 -871.2E-12  ??         100.      
 0.092492   0.83243    1.         3.         0.005844   3.        -8.3284E-6 -832.8E-12  ??         100.      
 0.097213   0.79403    1.         3.         0.0061362  3.        -7.9443E-6 -794.4E-12  ??         100.      
 0.10217    0.75562    1.         3.         0.006443   3.        -7.56E-6   -756.E-12   ??         100.      
 0.10737    0.71728    1.         3.         0.0067651  3.        -7.1764E-6 -717.6E-12  ??         100.      
 0.11284    0.67912    1.         3.         0.0071034  3.        -6.7946E-6 -679.5E-12  ??         100.      
 0.11857    0.64124    1.         3.         0.0074586  3.        -6.4156E-6 -641.6E-12  ??         100.      
 0.1246     0.60373    1.         3.         0.0078315  3.        -6.0403E-6 -604.E-12   ??         100.      
 0.13092    0.56671    1.         3.         0.0082231  3.        -5.6699E-6 -567.E-12   ??         100.      
 0.13757    0.53027    1.         3.         0.0086342  3.        -5.3054E-6 -530.5E-12  ??         100.      
 0.14454    0.49454    1.         3.         0.0090659  3.        -4.9478E-6 -494.8E-12  ??         100.      
 0.15186    0.4596     1.         3.         0.0095192  3.        -4.5983E-6 -459.8E-12  ??         100.      
 0.15955    0.42557    1.         3.         0.0099952  3.        -4.2579E-6 -425.8E-12  ??         100.      
 0.16762    0.39255    1.         3.         0.010495   3.        -3.9275E-6 -392.7E-12  ??         100.      
 0.1761     0.36063    1.         3.         0.01102    3.        -3.6081E-6 -360.8E-12  ??         100.      
 0.185      0.32991    1.         3.         0.011571   3.        -3.3007E-6 -330.1E-12  ??         100.      
 0.19435    0.30046    1.         3.         0.012149   3.        -3.0061E-6 -300.6E-12  ??         100.      
 0.20416    0.27236    1.         3.         0.012757   3.        -2.725E-6  -272.5E-12  ??         100.      
 0.21446    0.24568    1.         3.         0.013395   3.        -2.4581E-6 -245.8E-12  ??         100.      
 0.22528    0.22048    1.         3.         0.014064   3.        -2.2059E-6 -220.6E-12  ??         100.      
 0.23664    0.19679    1.         3.         0.014767   3.        -1.9689E-6 -196.9E-12  ??         100.      
 0.24857    0.17466    1.         3.         0.015506   3.        -1.7474E-6 -174.7E-12  ??         100.      
 0.26109    0.15409    1.         3.         0.016281   3.        -1.5416E-6 -154.2E-12  ??         100.      
 0.27424    0.13509    1.         3.         0.017095   3.        -1.3516E-6 -135.2E-12  ??         100.      
 0.28805    0.11766    1.         3.         0.01795    3.        -1.1772E-6 -117.7E-12  ??         100.      
 0.30255    0.10177    1.         3.         0.018847   3.        -1.0182E-6 -101.8E-12  ??         100.      
 0.31777    0.087396   1.         3.         0.01979    3.        -874.39E-9 -87.44E-12  ??         100.      
 0.33376    0.07448    1.         3.         0.020779   3.        -745.17E-9 -74.52E-12  ??         100.      
 0.35054    0.062967   1.         3.         0.021818   3.        -629.98E-9 -63.E-12    ??         100.      
 0.36816    0.052789   1.         3.         0.022909   3.        -528.15E-9 -52.82E-12  ??         100.      
 0.38666    0.043867   1.         3.         0.024055   3.        -438.89E-9 -43.89E-12  ??         100.      
 0.40609    0.036118   1.         3.         0.025257   3.        -361.36E-9 -36.14E-12  ??         100.      
 0.42649    0.02945    1.         3.         0.02652    3.        -294.64E-9 -29.46E-12  ??         100.      
 0.44791    0.023769   1.         3.         0.027846   3.        -237.81E-9 -23.78E-12  ??         100.      
 0.4704     0.018979   1.         3.         0.029239   3.        -189.89E-9 -18.99E-12  ??         100.      
 0.49402    0.014985   1.         3.         0.0307     3.        -149.93E-9 -14.99E-12  ??         100.      
 0.51882    0.011693   1.         3.         0.032235   3.        -116.99E-9 -11.7E-12   ??         100.      
 0.54485    0.0090114  1.         3.         0.033847   3.        -90.159E-9 -9.016E-12  ??         100.      
 0.57219    0.006855   1.         3.         0.03554    3.        -68.584E-9 -6.858E-12  ??         100.      
 0.6009     0.0051437  1.         3.         0.037317   3.        -51.463E-9 -5.146E-12  ??         100.      
 0.63104    0.0038047  1.         3.         0.039182   3.        -38.066E-9 -3.807E-12  ??         100.      
 0.66268    0.0027721  1.         3.         0.041142   3.        -27.735E-9 -2.773E-12  ??         100.      
 0.69591    0.001988   1.         3.         0.043199   3.        -19.89E-9  -1.989E-12  ??         100.      
 0.7308     0.0014022  1.         3.         0.045359   3.        -14.029E-9 -1.403E-12  ??         100.      
 0.76744    971.91E-6  1.         3.         0.047626   3.        -9.724E-9  -972.4E-15  ??         100.      
 0.80591    661.42E-6  1.         3.         0.050008   3.        -6.6176E-9 -661.8E-15  ??         100.      
 0.8463     441.55E-6  1.         3.         0.052508   3.        -4.4177E-9 -441.8E-15  ??         100.      
 0.88871    288.87E-6  1.         3.         0.055134   3.        -2.8901E-9 -289.E-15   ??         100.      
 0.93324    185.01E-6  1.         3.         0.05789    3.        -1.8511E-9 -185.1E-15  ??         100.      
