' 
#           v(2)       v(3)       v(4)       v(5)       v(6)       iter(0)   
 0.         0.         0.         0.         0.         0.         0.        
-1.         0.5        1.         1.n        2.         500.p      1.        
-2.         0.5        1.         0.5        2.         0.5        2.        
-3.         0.5        1.         0.5        2.         0.5        3.        
 27.        0.5        1.         0.5        2.         0.5        4.        
#Time       v(2)       v(3)       v(4)       v(5)       v(6)       iter(0)   
 0.         0.         0.         0.         0.         0.         0.        
-1.         0.5        1.         1.n        1.         1.n        1.        
-2.         0.5        1.         0.5        1.         0.5        2.        
-3.         0.5        1.         0.5        1.         0.5        3.        
 0.         0.5        1.         0.5        1.         0.5        4.        
 0.         0.5        1.         0.5        1.         0.5        0.        
-1.         0.5        1.         0.5        1.0063     0.50157    1.        
-2.         0.5        1.         0.5        1.0063     0.50157    2.        
-3.         0.5        1.         0.5        1.0063     0.50157    3.        
 1.u        0.5        1.         0.5        1.0063     0.50157    4.        
 0.         0.5        1.         0.5        1.0063     0.50157    0.        
-1.         0.5        1.         0.5        1.5878     0.64603    1.        
-2.         0.5        1.         0.5        1.5878     0.61357    2.        
-3.         0.5        1.         0.5        1.5878     0.61357    3.        
 100.u      0.5        1.         0.5        1.5878     0.61357    4.        
 0.         0.5        1.         0.5        1.0063     0.50157    0.        
-1.         0.5        1.         0.5        1.1097     0.52727    1.        
-2.         0.5        1.         0.5        1.1097     0.52601    2.        
-3.         0.5        1.         0.5        1.1097     0.52601    3.        
 17.5u      0.5        1.         0.5        1.1097     0.52601    4.        
 0.         0.5        1.         0.5        1.0063     0.50157    0.        
-1.         0.5        1.         0.5        1.0408     0.51015    1.        
-2.         0.5        1.         0.5        1.0408     0.51       2.        
-3.         0.5        1.         0.5        1.0408     0.51       3.        
 6.5u       0.5        1.         0.5        1.0408     0.51       4.        
 0.         0.5        1.         0.5        1.0408     0.51       0.        
-1.         0.5        1.         0.5        1.0643     0.51564    1.        
-2.         0.5        1.         0.5        1.0643     0.51557    2.        
-3.         0.5        1.         0.5        1.0643     0.51557    3.        
 10.24u     0.5        1.         0.5        1.0643     0.51557    4.        
 0.         0.5        1.         0.5        1.0643     0.51557    0.        
-1.         0.5        1.         0.5        1.3394     0.58014    1.        
-2.         0.5        1.         0.5        1.3394     0.57255    2.        
-3.         0.5        1.         0.5        1.3394     0.57255    3.        
 55.12u     0.5        1.         0.5        1.3394     0.57255    4.        
 0.         0.5        1.         0.5        1.3394     0.57255    0.        
-1.         0.5        1.         0.5        1.5878     0.61792    1.        
-2.         0.5        1.         0.5        1.5878     0.61357    2.        
-3.         0.5        1.         0.5        1.5878     0.61357    3.        
 100.u      0.5        1.         0.5        1.5878     0.61357    4.        
 0.         0.5        1.         0.5        1.5878     0.61357    0.        
-1.         0.5        1.         0.5        1.9511     0.66782    1.        
-2.         0.5        1.         0.5        1.9511     0.66114    2.        
-3.         0.5        1.         0.5        1.9511     0.66114    3.        
 200.u      0.5        1.         0.5        1.9511     0.66114    4.        
 0.         0.5        1.         0.5        1.9511     0.66114    0.        
-1.         0.5        1.         0.5        1.9511     0.66114    1.        
-2.         0.5        1.         0.5        1.9511     0.66114    2.        
 300.u      0.5        1.         0.5        1.9511     0.66114    3.        
 0.         0.5        1.         0.5        1.9511     0.66114    0.        
-1.         0.5        1.         0.5        1.5878     0.61942    1.        
-2.         0.5        1.         0.5        1.5878     0.61357    2.        
-3.         0.5        1.         0.5        1.5878     0.61357    3.        
 400.u      0.5        1.         0.5        1.5878     0.61357    4.        
 0.         0.5        1.         0.5        1.5878     0.61357    0.        
-1.         0.5        1.         0.5        1.         0.5258     1.        
-2.         0.5        1.         0.5        1.         0.5        2.        
-3.         0.5        1.         0.5        1.         0.5        3.        
 500.u      0.5        1.         0.5        1.         0.5        4.        
 0.         0.5        1.         0.5        1.         0.5        0.        
-1.         0.5        1.         0.5        0.41221    0.35305    1.        
-2.         0.5        1.         0.5        0.41221    0.29189    2.        
-3.         0.5        1.         0.5        0.41221    0.29189    3.        
 600.u      0.5        1.         0.5        0.41221    0.29189    4.        
 0.         0.5        1.         0.5        0.41221    0.29189    0.        
-1.         0.5        1.         0.5        0.048943   0.10974    1.        
-2.         0.5        1.         0.5        0.048943   0.04666    2.        
-3.         0.5        1.         0.5        0.048943   0.04666    3.        
 700.u      0.5        1.         0.5        0.048943   0.04666    4.        
 0.         0.5        1.         0.5        0.048943   0.04666    0.        
-1.         0.5        1.         0.5        0.048943   0.04666    1.        
-2.         0.5        1.         0.5        0.048943   0.04666    2.        
 800.u      0.5        1.         0.5        0.048943   0.04666    3.        
 0.         0.5        1.         0.5        0.048943   0.04666    0.        
-1.         0.5        1.         0.5        0.41221    0.37682    1.        
-2.         0.5        1.         0.5        0.41221    0.29189    2.        
-3.         0.5        1.         0.5        0.41221    0.29189    3.        
 900.u      0.5        1.         0.5        0.41221    0.29189    4.        
 0.         0.5        1.         0.5        0.41221    0.29189    0.        
-1.         0.5        1.         0.5        1.         0.58662    1.        
-2.         0.5        1.         0.5        1.         0.5        2.        
-3.         0.5        1.         0.5        1.         0.5        3.        
 0.001      0.5        1.         0.5        1.         0.5        4.        
Gnucap   System status
iterations: op=4, dc=0, tran=66, fourier=0, total=87
transient timesteps: accepted=15, rejected=2, total=17
nodes: user=6, subckt=0, model=0, total=6
dctran density=55.6%, ac density=55.6%
