' 
#           v(2)       v(3)       v(4)       v(5)       v(6)       iter(0)   
 0.         0.         0.         0.         0.         0.         0.        
-1.         0.5        1.         1.         2.         1.         1.        
-2.         0.5        1.         0.5        2.         0.5        2.        
-3.         0.5        1.         0.5        2.         0.5        3.        
 27.        0.5        1.         0.5        2.         0.5        4.        
#Time       v(2)       v(3)       v(4)       v(5)       v(6)       iter(0)    control(0)
 0.         0.         0.         0.         0.         0.         0.         1.        
-1.         0.5        1.         1.         1.         1.         1.         1.        
-2.         0.5        1.         0.5        1.         0.5        2.         1.        
-3.         0.5        1.         0.5        1.         0.5        3.         1.        
 0.         0.5        1.         0.5        1.         0.5        4.         1.        
 0.         0.5        1.         0.5        1.         0.5        0.         9.        
-1.         0.5        1.         0.5        1.0063     0.49843    1.         9.        
-2.         0.5        1.         0.5        1.0063     0.49843    2.         9.        
-3.         0.5        1.         0.5        1.0063     0.49843    3.         9.        
 1.u        0.5        1.         0.5        1.0063     0.49843    4.         9.        
 0.         0.5        1.         0.5        1.0063     0.49843    0.         1.        
-1.         0.5        1.         0.5        1.5878     0.35397    1.         1.        
-2.         0.5        1.         0.5        1.5878     0.38643    2.         1.        
-3.         0.5        1.         0.5        1.5878     0.38643    3.         1.        
 100.u      0.5        1.         0.5        1.5878     0.38643    4.         1.        
 0.         0.5        1.         0.5        1.5878     0.38643    0.         6.        
-1.         0.5        1.         0.5        1.9491     0.33248    1.         6.        
-2.         0.5        1.         0.5        1.9491     0.33909    2.         6.        
-3.         0.5        1.         0.5        1.9491     0.33909    3.         6.        
 199.u      0.5        1.         0.5        1.9491     0.33909    4.         6.        
 0.         0.5        1.         0.5        1.9491     0.33909    0.         1.        
-1.         0.5        1.         0.5        1.9511     0.33886    1.         1.        
-2.         0.5        1.         0.5        1.9511     0.33886    2.         1.        
-3.         0.5        1.         0.5        1.9511     0.33886    3.         1.        
 200.u      0.5        1.         0.5        1.9511     0.33886    4.         1.        
 0.         0.5        1.         0.5        1.9511     0.33886    0.         6.        
-1.         0.5        1.         0.5        1.953      0.33864    1.         6.        
-2.         0.5        1.         0.5        1.953      0.33864    2.         6.        
 201.u      0.5        1.         0.5        1.953      0.33864    3.         6.        
 0.         0.5        1.         0.5        1.953      0.33864    0.         1.        
-1.         0.5        1.         0.5        1.9511     0.33886    1.         1.        
-2.         0.5        1.         0.5        1.9511     0.33886    2.         1.        
 300.u      0.5        1.         0.5        1.9511     0.33886    3.         1.        
 0.         0.5        1.         0.5        1.9511     0.33886    0.         1.        
-1.         0.5        1.         0.5        1.5878     0.38058    1.         1.        
-2.         0.5        1.         0.5        1.5878     0.38643    2.         1.        
-3.         0.5        1.         0.5        1.5878     0.38643    3.         1.        
 400.u      0.5        1.         0.5        1.5878     0.38643    4.         1.        
 0.         0.5        1.         0.5        1.5878     0.38643    0.         1.        
-1.         0.5        1.         0.5        1.         0.4742     1.         1.        
-2.         0.5        1.         0.5        1.         0.5        2.         1.        
-3.         0.5        1.         0.5        1.         0.5        3.         1.        
 500.u      0.5        1.         0.5        1.         0.5        4.         1.        
 0.         0.5        1.         0.5        1.         0.5        0.         1.        
-1.         0.5        1.         0.5        0.41221    0.64695    1.         1.        
-2.         0.5        1.         0.5        0.41221    0.70811    2.         1.        
-3.         0.5        1.         0.5        0.41221    0.70811    3.         1.        
 600.u      0.5        1.         0.5        0.41221    0.70811    4.         1.        
 0.         0.5        1.         0.5        0.41221    0.70811    0.         1.        
-1.         0.5        1.         0.5        0.048943   0.89026    1.         1.        
-2.         0.5        1.         0.5        0.048943   0.95334    2.         1.        
-3.         0.5        1.         0.5        0.048943   0.95334    3.         1.        
 700.u      0.5        1.         0.5        0.048943   0.95334    4.         1.        
 0.         0.5        1.         0.5        0.048943   0.95334    0.         1.        
-1.         0.5        1.         0.5        0.048943   0.95334    1.         1.        
-2.         0.5        1.         0.5        0.048943   0.95334    2.         1.        
 800.u      0.5        1.         0.5        0.048943   0.95334    3.         1.        
 0.         0.5        1.         0.5        0.048943   0.95334    0.         1.        
-1.         0.5        1.         0.5        0.41221    0.62318    1.         1.        
-2.         0.5        1.         0.5        0.41221    0.70811    2.         1.        
-3.         0.5        1.         0.5        0.41221    0.70811    3.         1.        
 900.u      0.5        1.         0.5        0.41221    0.70811    4.         1.        
 0.         0.5        1.         0.5        0.41221    0.70811    0.         1.        
-1.         0.5        1.         0.5        1.         0.41338    1.         1.        
-2.         0.5        1.         0.5        1.         0.5        2.         1.        
-3.         0.5        1.         0.5        1.         0.5        3.         1.        
 0.001      0.5        1.         0.5        1.         0.5        4.         1.        
Gnucap   System status
iterations: op=4, dc=0, tran=53, fourier=0, total=71
transient timesteps: accepted=14, rejected=0, total=14
nodes: user=6, subckt=0, model=0, total=6
dctran density=55.6%, ac density=55.6%
