#           v(C1)      i(lb)      dv(n1)     v(n2)      ddv(n1)   
-1.        -1.        -0.025      25.K      -0.75       25.007K   
-0.8       -0.8       -0.025      25.K      -0.55       25.005K   
-0.6       -0.6       -0.025      25.K      -0.35       25.003K   
-0.4       -0.4       -0.025      25.K      -0.15       25.001K   
-0.2       -0.2       -0.025      25.K       0.05       25.K      
 0.         250.n     -0.025      25.K       0.25       24.998K   
 0.2        0.2       -0.025      25.K       0.45       24.996K   
 0.4        0.4       -0.025      25.K       0.65       24.994K   
 0.6        0.6       -0.025      25.K       0.85       24.992K   
 0.8        0.8       -0.025      25.K       1.05       24.99K    
 1.         1.        -0.025      25.K       1.25       24.988K   
 1.2        1.2       -0.025      25.K       1.45       24.986K   
 1.4        1.4       -0.025      25.K       1.65       24.984K   
 1.6        1.6       -0.025      25.K       1.85       24.982K   
 1.8        1.8       -0.025      25.K       2.05       24.98K    
 2.         2.        -0.025      25.K       2.25       24.978K   
-1.        -1.        -0.02       20.K      -0.8        20.008K   
-0.8       -0.8       -0.02       20.K      -0.6        20.006K   
-0.6       -0.6       -0.02       20.K      -0.4        20.004K   
-0.4       -0.4       -0.02       20.K      -0.2        20.002K   
-0.2       -0.2       -0.02       20.K       198.n      20.K      
 0.         200.n     -0.02       20.K       0.2        19.998K   
 0.2        0.2       -0.02       20.K       0.4        19.996K   
 0.4        0.4       -0.02       20.K       0.6        19.994K   
 0.6        0.6       -0.02       20.K       0.8        19.992K   
 0.8        0.8       -0.02       20.K       1.         19.99K    
 1.         1.        -0.02       20.K       1.2        19.988K   
 1.2        1.2       -0.02       20.K       1.4        19.986K   
 1.4        1.4       -0.02       20.K       1.6        19.984K   
 1.6        1.6       -0.02       20.K       1.8        19.982K   
 1.8        1.8       -0.02       20.K       2.         19.98K    
 2.         2.        -0.02       20.K       2.2        19.978K   
-1.        -1.        -0.015      15.K      -0.85       15.008K   
-0.8       -0.8       -0.015      15.K      -0.65       15.006K   
-0.6       -0.6       -0.015      15.K      -0.45       15.004K   
-0.4       -0.4       -0.015      15.K      -0.25       15.002K   
-0.2       -0.2       -0.015      15.K      -0.05       15.K      
 0.         150.n     -0.015      15.K       0.15       14.999K   
 0.2        0.2       -0.015      15.K       0.35       14.997K   
 0.4        0.4       -0.015      15.K       0.55       14.995K   
 0.6        0.6       -0.015      15.K       0.75       14.993K   
 0.8        0.8       -0.015      15.K       0.95       14.991K   
 1.         1.        -0.015      15.K       1.15       14.989K   
 1.2        1.2       -0.015      15.K       1.35       14.987K   
 1.4        1.4       -0.015      15.K       1.55       14.985K   
 1.6        1.6       -0.015      15.K       1.75       14.983K   
 1.8        1.8       -0.015      15.K       1.95       14.981K   
 2.         2.        -0.015      15.K       2.15       14.979K   
-1.        -1.        -0.01       10.K      -0.9        10.009K   
-0.8       -0.8       -0.01       10.K      -0.7        10.007K   
-0.6       -0.6       -0.01       10.K      -0.5        10.005K   
-0.4       -0.4       -0.01       10.K      -0.3        10.003K   
-0.2       -0.2       -0.01       10.K      -0.1        10.001K   
 0.         100.n     -0.01       10.K       0.1        9.999K    
 0.2        0.2       -0.01       10.K       0.3        9.997K    
 0.4        0.4       -0.01       10.K       0.5        9.995K    
 0.6        0.6       -0.01       10.K       0.7        9.9931K   
 0.8        0.8       -0.01       10.K       0.9        9.9911K   
 1.         1.        -0.01       10.K       1.1        9.9891K   
 1.2        1.2       -0.01       10.K       1.3        9.9871K   
 1.4        1.4       -0.01       10.K       1.5        9.9851K   
 1.6        1.6       -0.01       10.K       1.7        9.9832K   
 1.8        1.8       -0.01       10.K       1.9        9.9812K   
 2.         2.        -0.01       10.K       2.1        9.9792K   
-1.        -1.        -0.005      5.K       -0.95       5.0094K   
-0.8       -0.8       -0.005      5.K       -0.75       5.0074K   
-0.6       -0.6       -0.005      5.K       -0.55       5.0054K   
-0.4       -0.4       -0.005      5.K       -0.35       5.0035K   
-0.2       -0.2       -0.005      5.K       -0.15       5.0015K   
 0.         50.n      -0.005      5.K        0.05       4.9995K   
 0.2        0.2       -0.005      5.K        0.25       4.9975K   
 0.4        0.4       -0.005      5.K        0.45       4.9955K   
 0.6        0.6       -0.005      5.K        0.65       4.9936K   
 0.8        0.8       -0.005      5.K        0.85       4.9916K   
 1.         1.        -0.005      5.K        1.05       4.9896K   
 1.2        1.2       -0.005      5.K        1.25       4.9876K   
 1.4        1.4       -0.005      5.K        1.45       4.9856K   
 1.6        1.6       -0.005      5.K        1.65       4.9837K   
 1.8        1.8       -0.005      5.K        1.85       4.9817K   
 2.         2.        -0.005      5.K        2.05       4.9797K   
-1.        -1.        -3.0494n    0.0030~   -1.         9.9031    
-0.8       -0.8        199.96p   -19~.~u    -0.8        7.9198    
-0.6       -0.6        199.96p   -199.~u    -0.6        5.9398    
-0.4       -0.4        199.96p   -199.~u    -0.4        3.9598    
-0.2       -0.2        199.96p   -199.~u    -0.2        1.9798    
 0.        -1.9996f    199.96p   -199.96u   -1.9996n   -199.94u   
 0.2        0.2        199.96p   -200.~u     0.2       -1.9802    
 0.4        0.4        199.96p   -200.~u     0.4       -3.9602    
 0.6        0.6        199.96p   -200.~u     0.6       -5.9402    
 0.8        0.8        199.96p   -20~.~u     0.8       -7.9202    
 1.         1.         199.96p   -20~.~u     1.        -9.9002    
 1.2        1.2        199.96p   -20~.~u     1.2       -11.88     
 1.4        1.4        199.96p   -20~.~u     1.4       -13.86     
 1.6        1.6        199.96p   -20~.~u     1.6       -15.84     
 1.8        1.8        199.96p   -20~.~u     1.8       -17.82     
 2.         2.         199.96p   -20~.~u     2.        -19.8      
-1.        -1.         0.005     -5.K       -1.05      -4.9896K   
-0.8       -0.8        0.005     -5.K       -0.85      -4.9916K   
-0.6       -0.6        0.005     -5.K       -0.65      -4.9936K   
-0.4       -0.4        0.005     -5.K       -0.45      -4.9955K   
-0.2       -0.2        0.005     -5.K       -0.25      -4.9975K   
 0.        -50.n       0.005     -5.K       -0.05      -4.9995K   
 0.2        0.2        0.005     -5.K        0.15      -5.0015K   
 0.4        0.4        0.005     -5.K        0.35      -5.0035K   
 0.6        0.6        0.005     -5.K        0.55      -5.0054K   
 0.8        0.8        0.005     -5.K        0.75      -5.0074K   
 1.         1.         0.005     -5.K        0.95      -5.0094K   
 1.2        1.2        0.005     -5.K        1.15      -5.0114K   
 1.4        1.4        0.005     -5.K        1.35      -5.0134K   
 1.6        1.6        0.005     -5.K        1.55      -5.0153K   
 1.8        1.8        0.005     -5.K        1.75      -5.0173K   
 2.         2.         0.005     -5.K        1.95      -5.0193K   
-1.        -1.         0.01      -10.K      -1.1       -9.9891K   
-0.8       -0.8        0.01      -10.K      -0.9       -9.9911K   
-0.6       -0.6        0.01      -10.K      -0.7       -9.9931K   
-0.4       -0.4        0.01      -10.K      -0.5       -9.995K    
-0.2       -0.2        0.01      -10.K      -0.3       -9.997K    
 0.        -100.n      0.01      -10.K      -0.1       -9.999K    
 0.2        0.2        0.01      -10.K       0.1       -10.001K   
 0.4        0.4        0.01      -10.K       0.3       -10.003K   
 0.6        0.6        0.01      -10.K       0.5       -10.005K   
 0.8        0.8        0.01      -10.K       0.7       -10.007K   
 1.         1.         0.01      -10.K       0.9       -10.009K   
 1.2        1.2        0.01      -10.K       1.1       -10.011K   
 1.4        1.4        0.01      -10.K       1.3       -10.013K   
 1.6        1.6        0.01      -10.K       1.5       -10.015K   
 1.8        1.8        0.01      -10.K       1.7       -10.017K   
 2.         2.         0.01      -10.K       1.9       -10.019K   
-1.        -1.         0.015     -15.K      -1.15      -14.989K   
-0.8       -0.8        0.015     -15.K      -0.95      -14.991K   
-0.6       -0.6        0.015     -15.K      -0.75      -14.993K   
-0.4       -0.4        0.015     -15.K      -0.55      -14.995K   
-0.2       -0.2        0.015     -15.K      -0.35      -14.997K   
 0.        -150.n      0.015     -15.K      -0.15      -14.999K   
 0.2        0.2        0.015     -15.K       0.05      -15.K      
 0.4        0.4        0.015     -15.K       0.25      -15.002K   
 0.6        0.6        0.015     -15.K       0.45      -15.004K   
 0.8        0.8        0.015     -15.K       0.65      -15.006K   
 1.         1.         0.015     -15.K       0.85      -15.008K   
 1.2        1.2        0.015     -15.K       1.05      -15.01K    
 1.4        1.4        0.015     -15.K       1.25      -15.012K   
 1.6        1.6        0.015     -15.K       1.45      -15.014K   
 1.8        1.8        0.015     -15.K       1.65      -15.016K   
 2.         2.         0.015     -15.K       1.85      -15.018K   
-1.        -1.         0.02      -20.K      -1.2       -19.988K   
-0.8       -0.8        0.02      -20.K      -1.        -19.99K    
-0.6       -0.6        0.02      -20.K      -0.8       -19.992K   
-0.4       -0.4        0.02      -20.K      -0.6       -19.994K   
-0.2       -0.2        0.02      -20.K      -0.4       -19.996K   
 0.        -200.n      0.02      -20.K      -0.2       -19.998K   
 0.2        0.2        0.02      -20.K      -202.n     -20.K      
 0.4        0.4        0.02      -20.K       0.2       -20.002K   
 0.6        0.6        0.02      -20.K       0.4       -20.004K   
 0.8        0.8        0.02      -20.K       0.6       -20.006K   
 1.         1.         0.02      -20.K       0.8       -20.008K   
 1.2        1.2        0.02      -20.K       1.        -20.01K    
 1.4        1.4        0.02      -20.K       1.2       -20.012K   
 1.6        1.6        0.02      -20.K       1.4       -20.014K   
 1.8        1.8        0.02      -20.K       1.6       -20.016K   
 2.         2.         0.02      -20.K       1.8       -20.018K   
-1.        -1.         0.025     -25.K      -1.25      -24.988K   
-0.8       -0.8        0.025     -25.K      -1.05      -24.99K    
-0.6       -0.6        0.025     -25.K      -0.85      -24.992K   
-0.4       -0.4        0.025     -25.K      -0.65      -24.994K   
-0.2       -0.2        0.025     -25.K      -0.45      -24.996K   
 0.        -250.n      0.025     -25.K      -0.25      -24.998K   
 0.2        0.2        0.025     -25.K      -0.05      -25.K      
 0.4        0.4        0.025     -25.K       0.15      -25.001K   
 0.6        0.6        0.025     -25.K       0.35      -25.003K   
 0.8        0.8        0.025     -25.K       0.55      -25.005K   
 1.         1.         0.025     -25.K       0.75      -25.007K   
 1.2        1.2        0.025     -25.K       0.95      -25.009K   
 1.4        1.4        0.025     -25.K       1.15      -25.011K   
 1.6        1.6        0.025     -25.K       1.35      -25.013K   
 1.8        1.8        0.025     -25.K       1.55      -25.015K   
 2.         2.         0.025     -25.K       1.75      -25.017K   
#          
 0.        
#Time       v(C1)      i(lb)     
 0.         1.         999.8p    
 1.u        0.9995~    985.~u    
 2.u        0.9980~    0.0019~   
 3.u        0.9955~    0.0029~   
 4.u        0.9922~    0.0038~   
 5.u        0.9878~    0.0048~   
 6.u        0.9825~    0.0057~   
 7.u        0.9764~    0.0066~   
 8.u        0.9693~    0.0075~   
 9.u        0.9613~    0.0084~   
 10.u       0.9524~    0.0092~   
 11.u       0.9428~    0.0101~   
 12.u       0.9322~    0.0109~   
 13.u       0.9209~    0.0117~   
 14.u       0.9088~    0.0125~   
 15.u       0.8958~    0.0132~   
 16.u       0.8822~    0.0140~   
 17.u       0.8678~    0.0147~   
 18.u       0.8527~    0.0154~   
 19.u       0.8369~    0.0161~   
 20.u       0.8204~    0.0168~   
 21.u       0.8033~    0.0174~   
 22.u       0.7855~    0.0180~   
 23.u       0.7672~    0.0186~   
 24.u       0.7483~    0.0191~   
 25.u       0.7288~    0.0197~   
 26.u       0.7088~    0.0202~   
 27.u       0.6883~    0.0207~   
 28.u       0.6673~    0.0212~   
 29.u       0.6459~    0.0216~   
 30.u       0.6241~    0.0220~   
 31.u       0.6018~    0.0224~   
 32.u       0.5792~    0.0228~   
 33.u       0.5562~    0.0231~   
 34.u       0.533      0.0234~   
 35.u       0.5094~    0.0237~   
 36.u       0.4855~    0.0239~   
 37.u       0.4614~    0.0242~   
 38.u       0.4371~    0.0244~   
 39.u       0.4126~    0.0245~   
 40.u       0.3879~    0.0247~   
 41.u       0.3631~    0.0248~   
 42.u       0.3382~    0.0249~   
 43.u       0.3132~    0.0250~   
 44.u       0.2881~    0.0250~   
 45.u       0.2630~    0.0251~   
 46.u       0.2379~    0.0251~   
 47.u       0.2128~    0.0250~   
 48.u       0.1877~    0.0250~   
 49.u       0.1627~    0.0249~   
 50.u       0.1378~    0.0248~   
 51.u       0.11~      0.0247~   
 52.u       0.0883~    0.0246~   
 53.u       0.0637~    0.0244~   
 54.u       0.0394~    0.0242~   
 55.u       0.0153~    0.0240~   
 56.u      -0.0086~    0.0238~   
 57.u      -0.0322~    0.0235~   
 58.u      -0.0557~    0.0232~   
 59.u      -0.0788~    0.0229~   
 60.u      -0.1016~    0.0226~   
 61.u      -0.1241~    0.0223~   
 62.u      -0.1463~    0.0219~   
 63.u      -0.1681~    0.0216~   
 64.u      -0.1895~    0.0212~   
 65.u      -0.2105~    0.0208~   
 66.u      -0.2311~    0.0203~   
 67.u      -0.2512~    0.0199~   
 68.u      -0.27101    0.0194~   
 69.u      -0.29027    0.0190~   
 70.u      -0.30905    0.0185~   
 71.u      -0.32735    0.0180~   
 72.u      -0.34514    0.0175~   
 73.u      -0.36242    0.0170~   
 74.u      -0.37917    0.0164~   
 75.u      -0.39538    0.0159~   
 76.u      -0.41104    0.0153~   
 77.u      -0.42615    0.0148~   
 78.u      -0.44068    0.0142~   
 79.u      -0.45464    0.0136~   
 80.u      -0.46801    0.0130~   
 81.u      -0.48079    0.0124~   
 82.u      -0.49297    0.0118~   
 83.u      -0.50455    0.0112~   
 84.u      -0.51551    0.0106~   
 85.u      -0.52586    0.0100~   
 86.u      -0.53559    0.0094~   
 87.u      -0.54469    0.0087~   
 88.u      -0.55317    0.0081~   
 89.u      -0.56102    0.0075~   
 90.u      -0.568~     0.0069~   
 91.u      -0.574~     0.0062~   
 92.u      -0.580~     0.0056~   
 93.u      -0.586~     0.0050~   
 94.u      -0.590~     0.0043~   
 95.u      -0.594~     0.0037~   
 96.u      -0.598~     0.0031~   
 97.u      -0.601~     0.0025~   
 98.u      -0.603~     0.0018~   
 99.u      -0.604~     0.0012~   
 100.u     -0.605~     668.~u    
 101.u     -0.606~     64.8~u    
 102.u     -0.606~    -533.~u    
 103.u     -0.605~    -0.0011~   
 104.u     -0.603~    -0.0017~   
 105.u     -0.601~    -0.0022~   
 106.u     -0.599~    -0.0028~   
 107.u     -0.596~    -0.0034~   
 108.u     -0.592~    -0.0039~   
 109.u     -0.588~    -0.0045~   
 110.u     -0.583~    -0.0050~   
 111.u     -0.578~    -0.0055~   
 112.u     -0.572~    -0.0060~   
 113.u     -0.565~    -0.0065~   
 114.u     -0.559~    -0.0070~   
 115.u     -0.551~    -0.0075~   
 116.u     -0.544~    -0.0080~   
 117.u     -0.535~    -0.0084~   
 118.u     -0.527~    -0.0089~   
 119.u     -0.517~    -0.0093~   
 120.u     -0.508~    -0.0097~   
 121.u     -0.498~    -0.0101~   
 122.u     -0.488~    -0.0105~   
 123.u     -0.477~    -0.0109~   
 124.u     -0.466~    -0.0112~   
 125.u     -0.454~    -0.0116~   
 126.u     -0.443~    -0.0119~   
 127.u     -0.431~    -0.0122~   
 128.u     -0.418~    -0.0125~   
 129.u     -0.406~    -0.0128~   
 130.u     -0.393~    -0.0130~   
 131.u     -0.379~    -0.0133~   
 132.u     -0.366~    -0.0135~   
 133.u     -0.352~    -0.0138~   
 134.u     -0.338~    -0.0140~   
 135.u     -0.324~    -0.0141~   
 136.u     -0.310~    -0.0143~   
 137.u     -0.295~    -0.0145~   
 138.u     -0.281~    -0.0146~   
 139.u     -0.266~    -0.0147~   
 140.u     -0.251~    -0.0149~   
 141.u     -0.236~    -0.0149~   
 142.u     -0.221~    -0.0150~   
 143.u     -0.206~    -0.0151~   
 144.u     -0.191~    -0.0151~   
 145.u     -0.176~    -0.015~    
 146.u     -0.161~    -0.0152~   
 147.u     -0.145~    -0.0152~   
 148.u     -0.130~    -0.0152~   
 149.u     -0.115~    -0.0151~   
 150.u     -0.100~    -0.0151~   
 151.u     -0.085~    -0.0150~   
 152.u     -0.070~    -0.0150~   
 153.u     -0.055~    -0.0149~   
 154.u     -0.040~    -0.0148~   
 155.u     -0.025~    -0.0147~   
 156.u     -0.010~    -0.0145~   
 157.u      0.003~    -0.0144~   
 158.u      0.018~    -0.0142~   
 159.u      0.032~    -0.0141~   
 160.u      0.046~    -0.0139~   
 161.u      0.060~    -0.0137~   
 162.u      0.073~    -0.0135~   
 163.u      0.087~    -0.0133~   
 164.u      0.100~    -0.0131~   
 165.u      0.113~    -0.0128~   
 166.u      0.126~    -0.0126~   
 167.u      0.138~    -0.0123~   
 168.u      0.151~    -0.0121~   
 169.u      0.163~    -0.0118~   
 170.u      0.174~    -0.0115~   
 171.u      0.186~    -0.0112~   
 172.u      0.197~    -0.0109~   
 173.u      0.208~    -0.0106~   
 174.u      0.218~    -0.0103~   
 175.u      0.2288    -0.0100~   
 176.u      0.23867   -0.009~    
 177.u      0.2482    -0.0093~   
 178.u      0.25739   -0.0090~   
 179.u      0.26624   -0.0086~   
 180.u      0.27474   -0.0083~   
 181.u      0.28289   -0.0079~   
 182.u      0.29068   -0.0076~   
 183.u      0.2981    -0.0072~   
 184.u      0.30516   -0.0068~   
 185.u      0.31184   -0.0065~   
 186.u      0.31816   -0.0061~   
 187.u      0.3241    -0.0057~   
 188.u      0.32966   -0.0053~   
 189.u      0.33484   -0.0049~   
 190.u      0.33964   -0.0046~   
 191.u      0.34406   -0.0042~   
 192.u      0.3481    -0.0038~   
 193.u      0.35175   -0.0034~   
 194.u      0.35502   -0.0030~   
 195.u      0.35791   -0.0026~   
 196.u      0.36042   -0.0023~   
 197.u      0.36255   -0.0019~   
 198.u      0.3643    -0.0015~   
 199.u      0.36567   -0.0011~   
 200.u      0.36667   -814.6~    
 201.u      0.3673    -445.0~    
 202.u      0.36757   -78.6~     
 203.u      0.36746    284.2~    
 204.u      0.367      643.2~    
 205.u      0.36618    998.0~    
 206.u      0.36501    0.0013~   
 207.u      0.36348    0.0016~   
 208.u      0.36162    0.0020~   
 209.u      0.35942    0.0023~   
 210.u      0.35688    0.0026~   
 211.u      0.35402    0.0030~   
 212.u      0.35084    0.0033~   
 213.u      0.34735    0.0036~   
 214.u      0.34354    0.0039~   
 215.u      0.33944    0.0042~   
 216.u      0.33504    0.0045~   
 217.u      0.33035    0.0048~   
 218.u      0.32539    0.0051~   
 219.u      0.32015    0.0053~   
 220.u      0.3146~    0.0056~   
 221.u      0.3089     0.0058~   
 222.u      0.3029     0.0061~   
 223.u      0.29665    0.0063~   
 224.u      0.29018    0.0065~   
 225.u      0.28349    0.0068~   
 226.u      0.27658    0.0070~   
 227.u      0.26947    0.0072~   
 228.u      0.26216    0.0074~   
 229.u      0.25466    0.0075~   
 230.u      0.24699    0.0077~   
 231.u      0.23915    0.0079~   
 232.u      0.23116    0.0080~   
 233.u      0.22301    0.0082~   
 234.u      0.21473    0.0083~   
 235.u      0.20631    0.0084~   
 236.u      0.19777    0.0085~   
