//* a comment 
// testing spice bm access through wrapper
vsource_sin #(.offset(NA( 0.)),.amplitude(1),.frequency(NA( NA)),.samples(12)) mysin (.p(1),.n(0));
vsource_sin #(.offset(NA( 0.)),.amplitude( 1.),.frequency( 1.)) v1 (.p(0),.n(2));
#Time       v(1)       v(2)      
 0.         0.         0.        
 0.05       0.30902   -0.30902   
 0.1        0.58779   -0.58779   
 0.15       0.80902   -0.80902   
 0.2        0.95106   -0.95106   
 0.25       1.        -1.        
 0.3        0.95106   -0.95106   
 0.35       0.80902   -0.80902   
 0.4        0.58779   -0.58779   
 0.45       0.30902   -0.30902   
 0.5        0.         0.        
 0.55      -0.30902    0.30902   
 0.6       -0.58779    0.58779   
 0.65      -0.80902    0.80902   
 0.7       -0.95106    0.95106   
 0.75      -1.         1.        
 0.8       -0.95106    0.95106   
 0.85      -0.80902    0.80902   
 0.9       -0.58779    0.58779   
 0.95      -0.30902    0.30902   
 1.         0.         0.        
Gnucap   System status
iterations: op=0, dc=0, tran=71, fourier=0, total=95
transient timesteps: accepted=24, rejected=0, total=24
nodes: user=2, subckt=0, model=0, total=2
dctran density=50.0%, ac density=50.0%
