'trunc error check 
V1 ( 1 0 ) pwl( 0., 0.  1.p, 1. )  AC  1.
L3 ( 1 2 )  0.1
R4 ( 2 0 )  1.
R5 ( 1 3 )  1.
C6 ( 3 0 )  0.1
#Time       iter(0)    v(1)       v(2)       v(3)       z(C6)      zraw(C6)   z(3)       control(0) timef(C6)  timef(L3)  dt(C6)     dtr(C6)   
 0.         3.         0.         0.         0.         1.         1.         1.         1.         Inf        Inf        ??         Inf       
 20.p       4.         1.         0.         200.p      1.         200.p      200.p      7.         40.p       40.p       20.p       20.p      
 40.p       4.         1.         200.p      400.p      1.         133.33p    133.33p    6.         502.04n    502.04n    20.p       502.n     
 502.02n    4.         1.         5.02u      5.0202u    1.         3.3465u    3.3465u    6.         40.269u    40.269u    501.98n    39.767u   
 40.183u    4.         1.         401.72u    401.72u    1.         264.47u    264.47u    6.         397.45u    397.45u    39.681u    357.27u   
 395.89u    4.         1.         0.0039491  0.0039491  1.         0.0023658  0.0023658  6.         0.001552   0.001552   355.71u    0.0011561 
 0.001463   4.         1.         0.014507   0.014507   1.         0.0070639  0.0070639  6.         0.0038119  0.0038119  0.0010671  0.0023489 
 0.0035973  4.         1.         0.035273   0.035273   1.         0.014029   0.014029   6.         0.0073926  0.0073926  0.0021342  0.0037953 
 0.0067986  4.         1.         0.065598   0.065598   1.         0.020896   0.020896   6.         0.012146   0.012146   0.0032014  0.0053474 
 0.01       4.         1.         0.095021   0.095021   1.         0.020896   0.020896   1.         0.016733   0.016733   0.0032014  0.006733  
 0.015      4.         1.         0.13904    0.13904    1.         0.032258   0.032258   6.         0.022862   0.022862   0.005      0.0078622 
 0.02       4.         1.         0.18101    0.18101    1.         0.032258   0.032258   1.         0.029641   0.029641   0.005      0.0096412 
 0.025      4.         1.         0.22097    0.22097    1.         0.032258   0.032258   6.         0.035734   0.035734   0.005      0.010734  
 0.03       4.         1.         0.25899    0.25899    1.         0.032258   0.032258   1.         0.041844   0.041844   0.005      0.011844  
 0.04       4.         1.         0.32906    0.32906    1.         0.0625     0.0625     1.         0.053183   0.053183   0.01       0.013183  
 0.05       4.         1.         0.3929     0.3929     1.         0.0625     0.0625     1.         0.066257   0.066257   0.01       0.016257  
 0.06       4.         1.         0.45079    0.45079    1.         0.0625     0.0625     1.         0.077852   0.077852   0.01       0.017852  
 0.07       4.         1.         0.5032     0.5032     1.         0.0625     0.0625     1.         0.089648   0.089648   0.01       0.019648  
 0.08       4.         1.         0.55063    0.55063    1.         0.0625     0.0625     1.         0.10153    0.10153    0.01       0.021535  
 0.09       4.         1.         0.59354    0.59354    1.         0.0625     0.0625     1.         0.11348    0.11348    0.01       0.023477  
 0.1        4.         1.         0.63235    0.63235    1.         0.0625     0.0625     1.         0.12547    0.12547    0.01       0.025467  
#Freq       v(2)       v(3)       vp(2)      vp(3)      z(C6)      zraw(C6)   z(3)      
 0.001      1.         1.        -0.036     -0.036      1.         1.         1.        
 0.0031623  1.         1.        -0.11384   -0.11384    1.         1.         1.        
 0.01       0.99998    0.99998   -0.36      -0.36       1.         0.99998    0.99998   
 0.031623   0.9998     0.9998    -1.1383    -1.1383     1.         0.9998     0.9998    
 0.1        0.99803    0.99803   -3.5953    -3.5953     1.         0.99803    0.99803   
 0.31623    0.98083    0.98083   -11.238    -11.238     1.         0.98083    0.98083   
 1.         0.84673    0.84673   -32.142    -32.142     1.         0.84673    0.84673   
 3.1623     0.44956    0.44956   -63.284    -63.284     1.         0.44956    0.44956   
 10.        0.15718    0.15718   -80.957    -80.957     1.         0.15718    0.15718   
 31.623     0.050266   0.050266  -87.119    -87.119     1.         0.050266   0.050266  
 100.       0.015913   0.015913  -89.088    -89.088     1.         0.015913   0.015913  
V1 ( 1 0 ) pwl( 0., 0.  1.p, 1. )  AC  1.
L3 ( 1 2 )  0.1
R4 ( 2 0 )  1.
R5 ( 1 3 )  1.
C6 ( 3 0 )  0.1
*.tran .01 .1 0 
Gnucap   System status
iterations: op=0, dc=0, tran=83, fourier=0, total=115
transient timesteps: accepted=21, rejected=0, total=21
nodes: user=3, subckt=0, model=0, total=3
dctran density=77.8%, ac density=77.8%
