'trunc error check 
V1 ( 1 0 ) generator scale= 1.
L3 ( 1 2 )  0.1
R4 ( 2 0 )  1.
R5 ( 1 3 )  1.
C6 ( 3 0 )  0.1
.fanout 
 ^ ? fanout: no match
.fanout 2 
 ^ ? fanout: no match
#Time       iter(0)    v(1)       v(2)       v(3)       z(C6)      zraw(C6)   z(3)       control(0) timef(C6)  timef(L3) 
 0.         3.         0.         0.         0.         1.         1.         1.         1.         Inf        Inf       
 100.u      4.         1.         975.61u    999.u      1.         999.u      999.u      9.         200.u      200.u     
 200.u      4.         1.         0.0019742  0.0019975  1.         499.75u    499.75u    6.         0.0020333  0.0020332 
 0.0018333  4.         1.         0.018144   0.018166   1.         0.0081005  0.0081005  6.         0.0045011  0.0045011 
 0.003875   4.         1.         0.037988   0.038009   1.         0.010105   0.010105   6.         0.019517   0.019516  
 0.01       4.         1.         0.0951~    0.0951~    1.         0.02~      0.02~      1.         0.0~       0.0~      
 0.02       4.         1.         0.1813~    0.1813~    1.         0.047619   0.047619   1.         0.04~      0.04~     
 0.03       4.         1.         0.2593~    0.2593~    1.         0.047619   0.047619   1.         0.06~      0.06~     
 0.04       4.         1.         0.3298~    0.3298~    1.         0.047619   0.047619   1.         0.07285    0.07285   
 0.05       4.         1.         0.39368    0.39368    1.         0.047619   0.047619   1.         0.086027   0.086027  
 0.06       4.         1.         0.4514~    0.45143    1.         0.047619   0.047619   1.         0.098988   0.098988  
 0.07       4.         1.         0.50367    0.50367    1.         0.047619   0.047619   1.         0.1118~    0.1118~   
 0.08       4.         1.         0.55094    0.55094    1.         0.047619   0.047619   1.         0.1245~    0.1245~   
 0.09       4.         1.         0.59371    0.59371    1.         0.047619   0.047619   1.         0.1372~    0.1372~   
 0.1        4.         1.         0.6324     0.6324     1.         0.047619   0.047619   1.         0.1498~    0.1498~   
 0.11       4.         1.         0.6674~    0.6674~    1.         0.047619   0.047619   1.         0.1624~    0.1624~   
 0.12       4.         1.         0.6990~    0.6990~    1.         0.047619   0.047619   1.         0.1751~    0.1751~   
 0.13       4.         1.         0.7277~    0.7277~    1.         0.047619   0.047619   1.         0.1877~    0.1877~   
 0.14       4.         1.         0.7536~    0.7536~    1.         0.047619   0.047619   1.         0.2004~    0.2004~   
 0.15       4.         1.         0.7771~    0.7771~    1.         0.047619   0.047619   1.         0.2130~    0.2130~   
 0.16       4.         1.         0.7983~    0.7983~    1.         0.047619   0.047619   1.         0.2258~    0.2258~   
 0.17       4.         1.         0.8175~    0.8175~    1.         0.047619   0.047619   1.         0.2385~    0.2385~   
 0.18       4.         1.         0.8349~    0.8349~    1.         0.047619   0.047619   1.         0.2514~    0.2514~   
 0.19       4.         1.         0.8506~    0.8506~    1.         0.047619   0.047619   1.         0.2643~    0.2643~   
 0.2        4.         1.         0.8648~    0.8648~    1.         0.047619   0.047619   1.         0.2772~    0.2772~   
 0.21       4.         1.         0.8777~    0.8777~    1.         0.047619   0.047619   1.         0.2902~    0.2902~   
 0.22       4.         1.         0.889~     0.889~     1.         0.047619   0.047619   1.         0.3033~    0.3033~   
 0.23       4.         1.         0.8999~    0.8999~    1.         0.047619   0.047619   1.         0.3165~    0.3165~   
 0.24       4.         1.         0.9094~    0.9094~    1.         0.047619   0.047619   1.         0.3297~    0.3297~   
 0.25       4.         1.         0.9180~    0.9180~    1.         0.047619   0.047619   1.         0.3431~    0.3431~   
 0.26       4.         1.         0.9258~    0.9258~    1.         0.047619   0.047619   1.         0.3565~    0.3565~   
 0.27       4.         1.         0.9329~    0.9329~    1.         0.047619   0.047619   1.         0.3700~    0.3700~   
 0.28       4.         1.         0.9393~    0.9393~    1.         0.047619   0.047619   1.         0.3837~    0.3837~   
 0.29       4.         1.         0.9451~    0.9451~    1.         0.047619   0.047619   1.         0.3974~    0.3974~   
 0.3        4.         1.         0.9503~    0.9503~    1.         0.047619   0.047619   1.         0.4112~    0.4112~   
 0.31       4.         1.         0.9550~    0.9550~    1.         0.047619   0.047619   1.         0.4252~    0.4252~   
 0.32       4.         1.         0.9593~    0.9593~    1.         0.047619   0.047619   1.         0.4393~    0.4393~   
 0.33       4.         1.         0.9632~    0.9632~    1.         0.047619   0.047619   1.         0.4535~    0.4535~   
 0.34       4.         1.         0.9667~    0.9667~    1.         0.047619   0.047619   1.         0.4678~    0.4678~   
 0.35       4.         1.         0.9698~    0.969~     1.         0.047619   0.047619   1.         0.4823~    0.4823~   
 0.36       4.         1.         0.9727~    0.9727~    1.         0.047619   0.047619   1.         0.497      0.497     
 0.37       4.         1.         0.9753~    0.9753~    1.         0.047619   0.047619   1.         0.51178    0.51178   
 0.38       4.         1.         0.977~     0.977~     1.         0.047619   0.047619   1.         0.5267     0.5267    
 0.39       4.         1.         0.9798~    0.9798~    1.         0.047619   0.047619   1.         0.54179    0.54179   
 0.4        4.         1.         0.9817~    0.9817~    1.         0.047619   0.047619   1.         0.55704    0.55704   
 0.41       4.         1.         0.9834~    0.9834~    1.         0.047619   0.047619   1.         0.5724~    0.57247   
 0.42       4.         1.         0.9850~    0.9850~    1.         0.047619   0.047619   1.         0.58807    0.58807   
 0.43       4.         1.         0.9864~    0.9864~    1.         0.047619   0.047619   1.         0.60385    0.60385   
 0.44       4.         1.         0.9877~    0.9877~    1.         0.047619   0.047619   1.         0.61983    0.61983   
 0.45       4.         1.         0.9889~    0.9889~    1.         0.047619   0.047619   1.         0.636      0.636     
 0.46       4.         1.         0.9899~    0.9899~    1.         0.047619   0.047619   1.         0.65238    0.65238   
 0.47       3.         1.         0.9909~    0.9909~    1.         0.047619   0.047619   1.         0.66897    0.66897   
 0.48       3.         1.         0.9918     0.9918~    1.         0.047619   0.047619   1.         0.68578    0.68578   
 0.49       3.         1.         0.99258    0.9925~    1.         0.047619   0.047619   1.         0.7028~    0.7028~   
 0.5        3.         1.         0.99329    0.993~     1.         0.047619   0.047619   1.         0.7200~    0.7200~   
 0.51       3.         1.         0.99393    0.9939~    1.         0.047619   0.047619   1.         0.7376~    0.7376~   
 0.52       3.         1.         0.99451    0.9945~    1.         0.047619   0.047619   1.         0.75537    0.75537   
 0.53       3.         1.         0.99503    0.9950~    1.         0.047619   0.047619   1.         0.773~     0.7734    
 0.54       3.         1.         0.9955     0.9955~    1.         0.047619   0.047619   1.         0.79169    0.791~    
 0.55       3.         1.         0.99593    0.9959~    1.         0.047619   0.047619   1.         0.81027    0.81027   
 0.56       3.         1.         0.99632    0.9963~    1.         0.047619   0.047619   1.         0.82913    0.8291~   
 0.57       3.         1.         0.99667    0.9966~    1.         0.047619   0.047619   1.         0.848~     0.8483    
 0.58       3.         1.         0.99699    0.9969~    1.         0.047619   0.047619   1.         0.8677~    0.8677~   
 0.59       3.         1.         0.99727    0.9972~    1.         0.047619   0.047619   1.         0.8875~    0.8875~   
 0.6        3.         1.         0.9975~    0.9975~    1.         0.047619   0.047619   1.         0.9076~    0.9076~   
 0.61       3.         1.         0.9977~    0.9977~    1.         0.047619   0.047619   1.         0.92814    0.9281~   
 0.62       3.         1.         0.9979~    0.9979~    1.         0.047619   0.047619   1.         0.9489~    0.9489~   
 0.63       3.         1.         0.9981~    0.9981~    1.         0.047619   0.047619   1.         0.97014    0.9701~   
 0.64       3.         1.         0.9983~    0.9983~    1.         0.047619   0.047619   1.         0.991~     0.9917~   
 0.65       3.         1.         0.9985~    0.9985~    1.         0.047619   0.047619   1.         1.013~     1.013~    
 0.66       3.         1.         0.9986~    0.99865    1.         0.047619   0.047619   1.         1.036      1.036     
 0.67       3.         1.         0.9987~    0.99878    1.         0.047619   0.047619   1.         1.0588     1.0588    
 0.68       3.         1.         0.9988~    0.998~     1.         0.047619   0.047619   1.         1.082      1.082     
 0.69       3.         1.         0.999~     0.999~     1.         0.047619   0.047619   1.         1.1056     1.1056    
 0.7        3.         1.         0.9990~    0.99909    1.         0.047619   0.047619   1.         1.1297     1.1298    
 0.71       3.         1.         0.9991~    0.99918    1.         0.047619   0.047619   1.         1.1543     1.1543    
 0.72       3.         1.         0.9992~    0.99926    1.         0.047619   0.047619   1.         1.1794     1.1794    
 0.73       3.         1.         0.9993~    0.99933    1.         0.047619   0.047619   1.         1.205      1.205     
 0.74       3.         1.         0.9993~    0.99939    1.         0.047619   0.047619   1.         1.2311     1.2312    
 0.75       3.         1.         0.9994~    0.9994~    1.         0.047619   0.047619   1.         1.2578     1.2578    
 0.76       3.         1.         0.9995~    0.9995~    1.         0.047619   0.047619   1.         1.285      1.2851    
 0.77       3.         1.         0.9995~    0.9995~    1.         0.047619   0.047619   1.         1.3129     1.3129    
 0.78       3.         1.         0.9995~    0.9995~    1.         0.047619   0.047619   1.         1.3413     1.3413    
 0.79       3.         1.         0.9996~    0.9996~    1.         0.047619   0.047619   1.         1.3703     1.3704    
 0.8        3.         1.         0.9996~    0.9996~    1.         0.047619   0.047619   1.         1.4        1.4001    
 0.81       3.         1.         0.9997~    0.9997~    1.         0.047619   0.047619   1.         1.4304     1.4304    
 0.82       3.         1.         0.9997~    0.9997~    1.         0.047619   0.047619   1.         1.461~     1.461~    
 0.83       3.         1.         0.9997~    0.9997~    1.         0.047619   0.047619   1.         1.493~     1.493~    
 0.84       3.         1.         0.9997~    0.9997~    1.         0.047619   0.047619   1.         1.525~     1.525~    
 0.85       3.         1.         0.9998~    0.9998~    1.         0.047619   0.047619   1.         1.559~     1.559~    
 0.86       3.         1.         0.9998~    0.9998~    1.         0.047619   0.047619   1.         1.593~     1.593~    
 0.87       3.         1.         0.9998~    0.9998~    1.         0.047619   0.047619   1.         1.627~     1.62~     
 0.88       3.         1.         0.9998~    0.9998~    1.         0.047619   0.047619   1.         1.663~     1.663~    
 0.89       3.         1.         0.9998~    0.9998~    1.         0.047619   0.047619   1.         1.700~     1.700~    
 0.9        3.         1.         0.9998~    0.9998~    1.         0.047619   0.047619   1.         1.737~     1.737~    
 0.91       3.         1.         0.9998~    0.999~     1.         0.047619   0.047619   1.         1.776~     1.776~    
 0.92       3.         1.         0.9999~    0.9999~    1.         0.047619   0.047619   1.         1.815~     1.815~    
 0.93       3.         1.         0.9999~    0.9999~    1.         0.047619   0.047619   1.         1.855~     1.855~    
 0.94       3.         1.         0.9999~    0.9999~    1.         0.047619   0.047619   1.         1.897~     1.897~    
 0.95       3.         1.         0.9999~    0.9999~    1.         0.047619   0.047619   1.         1.939~     1.939~    
 0.96       3.         1.         0.9999~    0.9999~    1.         0.047619   0.047619   1.         1.983~     1.983~    
 0.97       3.         1.         0.9999~    0.9999~    1.         0.047619   0.047619   1.         2.028~     2.028~    
 0.98       3.         1.         0.9999~    0.9999~    1.         0.047619   0.047619   1.         2.074~     2.074~    
 0.99       3.         1.         0.9999~    0.9999~    1.         0.047619   0.047619   1.         2.121~     2.121~    
 1.         3.         1.         0.9999~    0.9999~    1.         0.047619   0.047619   1.         2.169~     2.169~    
#Freq       v(2)       v(3)       vp(2)      vp(3)      z(C6)      zraw(C6)   z(3)      
 0.001      1.         1.        -0.036     -0.036      1.         1.         1.        
 0.0031623  1.         1.        -0.11384   -0.11384    1.         1.         1.        
 0.01       0.99998    0.99998   -0.36      -0.36       1.         0.99998    0.99998   
 0.031623   0.9998     0.9998    -1.1383    -1.1383     1.         0.9998     0.9998    
 0.1        0.99803    0.99803   -3.5953    -3.5953     1.         0.99803    0.99803   
 0.31623    0.98083    0.98083   -11.238    -11.238     1.         0.98083    0.98083   
 1.         0.84673    0.84673   -32.142    -32.142     1.         0.84673    0.84673   
 3.1623     0.44956    0.44956   -63.284    -63.284     1.         0.44956    0.44956   
 10.        0.15718    0.15718   -80.957    -80.957     1.         0.15718    0.15718   
 31.623     0.050266   0.050266  -87.119    -87.119     1.         0.050266   0.050266  
 100.       0.015913   0.015913  -89.088    -89.088     1.         0.015913   0.015913  
V1 ( 1 0 ) generator scale= 1.
L3 ( 1 2 )  0.1
R4 ( 2 0 )  1.
R5 ( 1 3 )  1.
C6 ( 3 0 )  0.1
Gnucap   System status
iterations: op=0, dc=0, tran=365, fourier=0, total=4~~
transient timesteps: accepted=10~, rejected=0, total=1~~
nodes: user=3, subckt=0, model=0, total=3
dctran density=77.8%, ac density=77.8%
