* p type inv amp w/bti 
*.options numdgt=7 
.model my_rcdmodel rcd ( tnom=NA( 27.) anneal=NA(1) rem=NA( 1.Meg) Re=NA( 1.) Rc=NA( 1.))
#Time       v(ng)      tau(MP1.BTI.RCD5) tau(MP1.BTI.RCD4) tau(MP1.BTI.RCD3) tau(MP1.BTI.RCD2) tau(MP1.BTI.RCD1) tau(MP1.BTI.RCD0)
 0.         0.83333    9.1747K    2.1757K    2.6344K    1.0169K    60.094     6.0325K   
 1.u        0.83268    8.9001K    2.1757K    2.6331K    1.0169K    60.14      6.2059K   
 2.u        0.83071    8.1259K    2.1757K    2.6293K    1.0168K    60.27      6.7551K   
 3.u        0.82744    6.9819K    2.1757K    2.6229K    1.0166K    60.464     7.7798K   
 4.u        0.82287    5.6519K    2.1757K    2.6141K    1.0164K    60.694     9.4672K   
 5.u        0.81703    4.3119K    2.1757K    2.6028K    1.0161K    60.93      12.163K   
 15.556u    0.68644    10.175     2.1757K    2.3628K    1.0099K    61.742     575.3K    
 26.111u    0.47679    616.62u    2.1757K    2.0228K    1.0001K    61.744     682.34K   
 40.889u    0.21984    4.177n     2.1757K    1.6722K    988.14     61.744     682.35K   
 55.667u    0.18755    936.16p    2.1757K    1.6326K    986.65     61.744     682.35K   
 77.833u    0.55898    0.027755   2.1757K    2.1498K    1.0039K    61.744     681.86K   
 100.u      0.83333    9.1726K    2.1757K    2.6344K    1.0169K    60.094     6.0339K   
#TTime      dvth(MP1.BTI) ueff(MP1.BTI.RCD5) ueff(MP1.BTI.RCD4) ueff(MP1.BTI.RCD3) ueff(MP1.BTI.RCD2) ueff(MP1.BTI.RCD1) ueff(MP1.BTI.RCD0)
 0.         0.        -Inf       -Inf       -Inf       -Inf       -Inf       -Inf       
 100.u      0.0040248 -0.6361    -0.22833   -0.52045   -0.49332   -0.21771   -0.21825   
 200.u      0.0040248 -0.57697   -0.22832   -0.52047   -0.49332   -0.21771   -0.21824   
 310.u      0.0040248 -0.52909   -0.5       -0.5       -0.5       -0.2177    -0.21824   
 564.1u     0.0040248 -0.48209   -0.5       -0.52154   -0.46039   -0.2177    -0.21824   
 973.7u     0.0040248 -0.53086   -0.5       -0.50269   -0.58076   -0.2177    -0.21824   
 0.0016291  0.0040249 -0.50776   -0.5       -0.54459   -0.47249   -0.2177    -0.21824   
 0.0026776  0.004025  -0.50657   -0.5       -0.5       -0.4108    -0.2177    -0.21824   
 0.0043554  0.0040251 -0.66667   -0.5       -0.5       -0.43774   -0.2177    -0.21824   
 0.0070397  0.0040253 -0.51283   -0.5       -0.5       -0.51917   -0.2177    -0.21824   
 0.011335   0.0040256 -0.48773   -0.5       -0.5       -0.5       -0.2177    -0.21823   
 0.018207   0.0040261 -0.83333   -0.5       -0.50204   -0.43956   -0.2177    -0.21823   
 0.029202   0.0040269 -0.35221   -0.48985   -0.53835   -0.42712   -0.2177    -0.21824   
 0.046794   0.0040282 -0.64189   -0.5       -0.50002   -0.59266   -0.2177    -0.21823   
 0.074875   0.0040303 -0.6759    -0.5       -0.5       -0.66537   -0.2177    -0.21823   
 0.11991    0.0040337 -0.50637   -0.5       -0.5       -0.63626   -0.2177    -0.21823   
 0.19197    0.004039  -0.55206   -0.5       -0.50001   -0.64036   -0.2177    -0.21823   
 0.30726    0.0040475 -0.49789   -0.5       -0.50004   -0.49587   -0.2177    -0.21823   
 0.49173    0.0040612 -0.3197    -0.5       -0.5141    -0.59176   -0.2177    -0.21823   
 0.78688    0.0040829 -0.51079   -0.5       -0.59588   -0.51076   -0.2177    -0.21823   
 1.2591     0.0041175 -0.66936   -0.5       -0.50164   -0.33714   -0.2177    -0.21823   
 2.0147     0.0041723 -0.66936   -0.4899    -0.5       -0.30689   -0.2177    -0.21823   
 3.2236     0.0042588 -0.51079   -0.5       -0.5       -0.70369   -0.2177    -0.21823   
 5.1579     0.0043939 -0.50539   -0.5       -0.5       -0.58257   -0.2177    -0.21823   
 8.2527     0.0046024 -0.51079   -0.41898   -0.5       -0.20651   -0.2177    -0.21823   
 13.205     0.004917  -0.50539   -0.49999   -0.53574   -0.44947   -0.2177    -0.21823   
 21.127     0.0053758 -0.66936   -0.49942   -0.5743    -0.38326   -0.2177    -0.21823   
 33.804     0.0060103 -0.66936   -0.49984   -0.55019   -0.51354   -0.2177    -0.21823   
 50.        0.0066746 -0.51079   -0.5       -0.49974   -0.4775    -0.2177    -0.21823   
bti= 0.00667~  
#TTime      dvth(MP1.BTI) ueff(MP1.BTI.RCD5) ueff(MP1.BTI.RCD4) ueff(MP1.BTI.RCD3) ueff(MP1.BTI.RCD2) ueff(MP1.BTI.RCD1) ueff(MP1.BTI.RCD0)
 0.         0.        -Inf       -Inf       -Inf       -Inf       -Inf       -Inf       
 100.u      0.0040248 -0.6361    -0.22833   -0.52045   -0.49332   -0.21771   -0.21825   
 200.u      0.0040248 -0.57697   -0.22832   -0.52047   -0.49332   -0.21771   -0.21824   
 310.u      0.0040248 -0.52909   -0.5       -0.5       -0.5       -0.2177    -0.21824   
 431.u      0.0040248 -0.56785   -0.5       -0.5       -0.42078   -0.2177    -0.21824   
 564.1u     0.0040248 -0.48209   -0.5       -0.52154   -0.46039   -0.2177    -0.21824   
 710.51u    0.0040248 -0.65771   -0.5       -0.51077   -0.59184   -0.2177    -0.21824   
 871.56u    0.0040248 -0.50561   -0.5       -0.50538   -0.59857   -0.2177    -0.21824   
 0.0011702  0.0040248 -0.43764   -0.5       -0.5       -0.57026   -0.2177    -0.21824   
 0.0014507  0.0040249 -0.49576   -0.5       -0.5       -0.36501   -0.2177    -0.21824   
 0.0017901  0.0040249 -0.56924   -0.5       -0.5       -0.17469   -0.2177    -0.21824   
 0.0023061  0.0040249 -0.83333   -0.5       -0.5       -0.79624   -0.2177    -0.21824   
 0.002925   0.004025  -0.57142   -0.5       -0.5       -0.28643   -0.2177    -0.21824   
 0.003668   0.004025  -0.64032   -0.5       -0.5       -0.59007   -0.2177    -0.21824   
 0.0045596  0.0040251 -0.66053   -0.5       -0.5       -0.58983   -0.2177    -0.21824   
 0.0055925  0.0040252 -0.65219   -0.5       -0.52806   -0.5       -0.2177    -0.21824   
 0.006857   0.0040253 -0.54122   -0.5       -0.50175   -0.40744   -0.2177    -0.21824   
 0.0083977  0.0040254 -0.66033   -0.33953   -0.52536   -0.43912   -0.2177    -0.21824   
 0.010247   0.0040255 -0.51219   -0.49499   -0.50079   -0.78132   -0.2177    -0.21824   
 0.012465   0.0040257 -0.50637   -0.49999   -0.5       -0.44164   -0.2177    -0.21823   
 0.015128   0.0040259 -0.35221   -0.49985   -0.49584   -0.42353   -0.2177    -0.21823   
 0.018322   0.0040261 -0.51296   -0.5       -0.49987   -0.68696   -0.2177    -0.21823   
 0.022156   0.0040264 -0.51259   -0.5       -0.5       -0.5       -0.2177    -0.21823   
 0.026757   0.0040267 -0.59277   -0.5       -0.51196   -0.65828   -0.2177    -0.21824   
 0.032277   0.0040272 -0.59277   -0.49969   -0.51281   -0.46678   -0.2177    -0.21824   
 0.038902   0.0040277 -0.62886   -0.5       -0.5       -0.50158   -0.2177    -0.21823   
 0.046852   0.0040282 -0.83333   -0.49969   -0.63157   -0.31898   -0.2177    -0.21823   
 0.056391   0.0040289 -0.56384   -0.49796   -0.50019   -0.74598   -0.2177    -0.21824   
 0.067839   0.0040298 -0.48773   -0.49998   -0.5       -0.65752   -0.2177    -0.21823   
 0.081576   0.0040308 -0.83333   -0.5       -0.5       -0.62571   -0.2177    -0.21824   
 0.09806    0.004032  -0.52524   -0.5       -0.49256   -0.51886   -0.2177    -0.21823   
 0.11784    0.0040335 -0.64691   -0.5       -0.55121   -0.47643   -0.2177    -0.21823   
 0.14158    0.0040353 -0.57277   -0.5       -0.50891   -0.59445   -0.2177    -0.21823   
 0.17006    0.0040374 -0.48695   -0.5       -0.49781   -0.5       -0.2177    -0.21823   
 0.20425    0.0040399 -0.42065   -0.5       -0.5       -0.43021   -0.2177    -0.21824   
 0.24527    0.004043  -0.48773   -0.5       -0.5       -0.52614   -0.2177    -0.21823   
 0.29449    0.0040466 -0.45502   -0.5       -0.5       -0.71708   -0.2177    -0.21823   
 0.35355    0.004051  -0.66985   -0.5       -0.5       -0.38247   -0.2177    -0.21823   
 0.42443    0.0040562 -0.51079   -0.5       -0.5       -0.5       -0.2177    -0.21823   
 0.50949    0.0040625 -0.50552   -0.45883   -0.4819    -0.38108   -0.2177    -0.21823   
 0.61156    0.00407   -0.50539   -0.49992   -0.49996   -0.32312   -0.2177    -0.21823   
 0.73404    0.004079  -0.50539   -0.5       -0.5       -0.43404   -0.2177    -0.21823   
 0.88102    0.0040898 -0.67206   -0.42179   -0.5       -0.59242   -0.2177    -0.21823   
 1.0574     0.0041027 -0.51079   -0.34319   -0.5       -0.18956   -0.2177    -0.21823   
 1.269      0.0041182 -0.51079   -0.49969   -0.50175   -0.44522   -0.2177    -0.21824   
 1.523      0.0041367 -0.66936   -0.4798    -0.5       -0.49033   -0.2177    -0.21824   
 1.8278     0.0041588 -0.66936   -0.49779   -0.49139   -0.37254   -0.2177    -0.21823   
 2.1935     0.0041852 -0.51079   -0.47968   -0.5609    -0.19214   -0.2177    -0.21823   
 2.6324     0.0042167 -0.66936   -0.5       -0.494~    -0.693     -0.2177    -0.21823   
 3.159      0.0042542 -0.51079   -0.5       -0.5       -0.44737   -0.2177    -0.21823   
 3.791      0.0042988 -0.51079   -0.5       -0.499~    -0.19916   -0.2177    -0.21823   
 4.5494     0.0043518 -0.67296   -0.5       -0.5       -0.38012   -0.2177    -0.21823   
 5.4594     0.0044146 -0.67296   -0.5       -0.500~    -0.54548   -0.2177    -0.21823   
 6.5515     0.004489  -0.51258   -0.5       -0.5       -0.36923   -0.2177    -0.21823   
 7.8619     0.0045766 -0.67296   -0.49508   -0.506~    -0.44603   -0.2177    -0.21823   
 9.4345     0.0046795 -0.51258   -0.49984   -0.50~     -0.63726   -0.2177    -0.21823   
 11.322     0.0048    -0.67296   -0.5       -0.~       -0.60906   -0.2177    -0.21823   
 13.586     0.00494~  -0.67296   -0.4989    -0.5~      -0.5624    -0.2177    -0.21823   
 16.303     0.00510~  -0.51258   -0.49486   -0.5~      -0.47667   -0.2177    -0.21823   
 19.564     0.00528~  -0.51258   -0.49992   -0.5~      -0.44597   -0.2177    -0.21823   
 23.477     0.00550~  -0.67296   -0.5       -0.5~      -0.62186   -0.2177    -0.21823   
 28.173     0.00574~  -0.51258   -0.5       -0.5       -0.50631   -0.2177    -0.21823   
 33.808     0.00601~  -0.51258   -0.4602    -0.5       -0.22459   -0.2177    -0.21823   
 40.569     0.00630~  -0.51258   -0.49984   -0.5~      -0.7848    -0.2177    -0.21823   
 48.683     0.006626  -0.51258   -0.5       -0.5~      -0.49003   -0.2177    -0.21823   
 50.        0.0066747 -0.51258   -0.5       -0.5~      -0.49973   -0.2177    -0.21823   
bti= 0.006674~  
Gnucap   System status
iterations: op=0, dc=0, tran=48, fourier=0, total=514560
transient timesteps: accepted=104872, rejected=0, total=104870
twotime timesteps: accepted=659, rejected=0, total=980
nodes: user=4, subckt=0, model=0, total=4
dctran density=87.5%, ac density=87.5%
