* test poly(1) 
V1 ( nin 0 ) sin offset=NA( 0.) amplitude= 1. frequency= 1.
E4 ( nsk 0 nin 0 )  poly( 0.  0.  1. )
#Time       v(nin)     v(nsk)    
 0.         0.         0.        
 0.05       0.30902    0.095492  
 0.1        0.58779    0.34549   
 0.15       0.80902    0.65451   
 0.2        0.95106    0.90451   
 0.25       1.         1.        
 0.3        0.95106    0.90451   
 0.35       0.80902    0.65451   
 0.4        0.58779    0.34549   
 0.45       0.30902    0.095492  
 0.5        0.         0.        
 0.55      -0.30902    0.095492  
 0.6       -0.58779    0.34549   
 0.65      -0.80902    0.65451   
 0.7       -0.95106    0.90451   
 0.75      -1.         1.        
 0.8       -0.95106    0.90451   
 0.85      -0.80902    0.65451   
 0.9       -0.58779    0.34549   
 0.95      -0.30902    0.095492  
 1.         0.         0.        
