.model my_rcd rcd ( tnom=NA( 27.) anneal=NA(1) rem=NA( 1.Meg) Re=NA( 1.) Rc=NA( 1.))
*// swapped
z3 ( nin 0 ) my_rcd weight=100 rc1=-1 rc0=0 re1=0 re0=10 mu=NA( 10.u)
#Time           v(nin)         stress(z3)     P(z3)          E(z3)          tau(z3)        zero(z3)      
 0.             1.5            1.5            0.             0.999954602    0.2231279      0.999954602   
 0.001          1.50753977     1.50753977     15.9241287E-6  0.999954761    0.221451909    0.999954602   
 0.1            2.2053423      2.2053423      0.00240075342  0.99997861     0.110212241    0.999954602   
 0.199          2.63891537     2.63891537     0.00376156005  0.999992218    0.0714384801   0.999954602   
 0.2            2.64126782     2.64126782     0.00376789483  0.999992281    0.0712706231   0.999954602   
 0.201          2.64357521     2.64357521     0.00377416609  0.999992344    0.071106364    0.999954602   
 0.3            2.64126782     2.64126782     0.00410601208  0.999995662    0.0712706231   0.999954602   
 0.4            2.2053423      2.2053423      0.00406629874  0.999995265    0.110212241    0.999954602   
 0.5            1.5            1.5            0.00387142408  0.999993316    0.2231279      0.999954602   
 0.6            0.794657697    0.794657697    0.00359688963  0.999990571    0.451726575    0.999954602   
 0.7            0.35873218     0.35873218     0.00329965453  0.999987599    0.698539261    0.999954602   
 0.8            0.35873218     0.35873218     0.00304206496  0.999985023    0.698539261    0.999954602   
 0.9            0.794657697    0.794657697    0.00293222646  0.999983924    0.451726575    0.999954602   
 1.             1.5            1.5            0.00314698565  0.999986072    0.2231279      0.999954602   
 1.1            2.2053423      2.2053423      0.00367923925  0.999991395    0.110212241    0.999954602   
 1.2            2.64126782     2.64126782     0.00408421144  0.999995444    0.0712706231   0.999954602   
 1.3            2.64126782     2.64126782     0.00418376698  0.99999644     0.0712706231   0.999954602   
 1.4            2.2053423      2.2053423      0.00409768033  0.999995579    0.110212241    0.999954602   
 1.5            1.5            1.5            0.00389147044  0.999993517    0.2231279      0.999954602   
 1.6            0.794657697    0.794657697    0.00361295515  0.999990732    0.451726575    0.999954602   
 1.7            0.35873218     0.35873218     0.00331357721  0.999987738    0.698539261    0.999954602   
 1.8            0.35873218     0.35873218     0.00305413062  0.999985143    0.698539261    0.999954602   
 1.9            0.794657697    0.794657697    0.00294189609  0.999984021    0.451726575    0.999954602   
 2.             1.5            1.5            0.00315316255  0.999986134    0.2231279      0.999954602   
 2.1            2.2053423      2.2053423      0.00368173222  0.999991419    0.110212241    0.999954602   
 2.2            2.64126782     2.64126782     0.00408482429  0.99999545     0.0712706231   0.999954602   
 2.3            2.64126782     2.64126782     0.00418391764  0.999996441    0.0712706231   0.999954602   
 2.4            2.2053423      2.2053423      0.00409774114  0.99999558     0.110212241    0.999954602   
 2.5            1.5            1.5            0.00389150929  0.999993517    0.2231279      0.999954602   
 2.6            0.794657697    0.794657697    0.00361298627  0.999990732    0.451726575    0.999954602   
 2.7            0.35873218     0.35873218     0.00331360419  0.999987738    0.698539261    0.999954602   
 2.8            0.35873218     0.35873218     0.003054154    0.999985144    0.698539261    0.999954602   
 2.9            0.794657697    0.794657697    0.00294191483  0.999984021    0.451726575    0.999954602   
 3.             1.5            1.5            0.00315317452  0.999986134    0.2231279      0.999954602   
 3.1            2.2053423      2.2053423      0.00368173705  0.99999142     0.110212241    0.999954602   
 3.2            2.64126782     2.64126782     0.00408482548  0.99999545     0.0712706231   0.999954602   
 3.3            2.64126782     2.64126782     0.00418391794  0.999996441    0.0712706231   0.999954602   
 3.4            2.2053423      2.2053423      0.00409774126  0.99999558     0.110212241    0.999954602   
 3.5            1.5            1.5            0.00389150936  0.999993517    0.2231279      0.999954602   
 3.6            0.794657697    0.794657697    0.00361298634  0.999990732    0.451726575    0.999954602   
 3.7            0.35873218     0.35873218     0.00331360424  0.999987738    0.698539261    0.999954602   
 3.8            0.35873218     0.35873218     0.00305415404  0.999985144    0.698539261    0.999954602   
 3.9            0.794657697    0.794657697    0.00294191487  0.999984021    0.451726575    0.999954602   
 4.             1.5            1.5            0.00315317454  0.999986134    0.2231279      0.999954602   
 4.1            2.2053423      2.2053423      0.00368173706  0.99999142     0.110212241    0.999954602   
 4.2            2.64126782     2.64126782     0.00408482548  0.99999545     0.0712706231   0.999954602   
 4.3            2.64126782     2.64126782     0.00418391794  0.999996441    0.0712706231   0.999954602   
 4.4            2.2053423      2.2053423      0.00409774126  0.99999558     0.110212241    0.999954602   
 4.5            1.5            1.5            0.00389150936  0.999993517    0.2231279      0.999954602   
 4.6            0.794657697    0.794657697    0.00361298634  0.999990732    0.451726575    0.999954602   
 4.7            0.35873218     0.35873218     0.00331360424  0.999987738    0.698539261    0.999954602   
 4.8            0.35873218     0.35873218     0.00305415404  0.999985144    0.698539261    0.999954602   
 4.9            0.794657697    0.794657697    0.00294191487  0.999984021    0.451726575    0.999954602   
 5.             1.5            1.5            0.00315317454  0.999986134    0.2231279      0.999954602   
 5.1            2.2053423      2.2053423      0.00368173706  0.99999142     0.110212241    0.999954602   
 5.2            2.64126782     2.64126782     0.00408482548  0.99999545     0.0712706231   0.999954602   
 5.3            2.64126782     2.64126782     0.00418391794  0.999996441    0.0712706231   0.999954602   
 5.4            2.2053423      2.2053423      0.00409774126  0.99999558     0.110212241    0.999954602   
 5.5            1.5            1.5            0.00389150936  0.999993517    0.2231279      0.999954602   
 5.6            0.794657697    0.794657697    0.00361298634  0.999990732    0.451726575    0.999954602   
 5.7            0.35873218     0.35873218     0.00331360424  0.999987738    0.698539261    0.999954602   
 5.8            0.35873218     0.35873218     0.00305415404  0.999985144    0.698539261    0.999954602   
 5.9            0.794657697    0.794657697    0.00294191487  0.999984021    0.451726575    0.999954602   
 6.             1.5            1.5            0.00315317454  0.999986134    0.2231279      0.999954602   
 6.1            2.2053423      2.2053423      0.00368173706  0.99999142     0.110212241    0.999954602   
 6.2            2.64126782     2.64126782     0.00408482548  0.99999545     0.0712706231   0.999954602   
 6.3            2.64126782     2.64126782     0.00418391794  0.999996441    0.0712706231   0.999954602   
 6.4            2.2053423      2.2053423      0.00409774126  0.99999558     0.110212241    0.999954602   
 6.5            1.5            1.5            0.00389150936  0.999993517    0.2231279      0.999954602   
 6.6            0.794657697    0.794657697    0.00361298634  0.999990732    0.451726575    0.999954602   
 6.7            0.35873218     0.35873218     0.00331360424  0.999987738    0.698539261    0.999954602   
 6.8            0.35873218     0.35873218     0.00305415404  0.999985144    0.698539261    0.999954602   
 6.9            0.794657697    0.794657697    0.00294191487  0.999984021    0.451726575    0.999954602   
 7.             1.5            1.5            0.00315317454  0.999986134    0.2231279      0.999954602   
 7.1            2.2053423      2.2053423      0.00368173706  0.99999142     0.110212241    0.999954602   
 7.2            2.64126782     2.64126782     0.00408482548  0.99999545     0.0712706231   0.999954602   
 7.3            2.64126782     2.64126782     0.00418391794  0.999996441    0.0712706231   0.999954602   
 7.4            2.2053423      2.2053423      0.00409774126  0.99999558     0.110212241    0.999954602   
 7.5            1.5            1.5            0.00389150936  0.999993517    0.2231279      0.999954602   
 7.6            0.794657697    0.794657697    0.00361298634  0.999990732    0.451726575    0.999954602   
 7.7            0.35873218     0.35873218     0.00331360424  0.999987738    0.698539261    0.999954602   
 7.8            0.35873218     0.35873218     0.00305415404  0.999985144    0.698539261    0.999954602   
 7.9            0.794657697    0.794657697    0.00294191487  0.999984021    0.451726575    0.999954602   
 8.             1.5            1.5            0.00315317454  0.999986134    0.2231279      0.999954602   
 8.1            2.2053423      2.2053423      0.00368173706  0.99999142     0.110212241    0.999954602   
 8.2            2.64126782     2.64126782     0.00408482548  0.99999545     0.0712706231   0.999954602   
 8.3            2.64126782     2.64126782     0.00418391794  0.999996441    0.0712706231   0.999954602   
 8.4            2.2053423      2.2053423      0.00409774126  0.99999558     0.110212241    0.999954602   
 8.5            1.5            1.5            0.00389150936  0.999993517    0.2231279      0.999954602   
 8.6            0.794657697    0.794657697    0.00361298634  0.999990732    0.451726575    0.999954602   
 8.7            0.35873218     0.35873218     0.00331360424  0.999987738    0.698539261    0.999954602   
 8.8            0.35873218     0.35873218     0.00305415404  0.999985144    0.698539261    0.999954602   
 8.9            0.794657697    0.794657697    0.00294191487  0.999984021    0.451726575    0.999954602   
 9.             1.5            1.5            0.00315317454  0.999986134    0.2231279      0.999954602   
 9.1            2.2053423      2.2053423      0.00368173706  0.99999142     0.110212241    0.999954602   
 9.2            2.64126782     2.64126782     0.00408482548  0.99999545     0.0712706231   0.999954602   
 9.3            2.64126782     2.64126782     0.00418391794  0.999996441    0.0712706231   0.999954602   
 9.4            2.2053423      2.2053423      0.00409774126  0.99999558     0.110212241    0.999954602   
 9.5            1.5            1.5            0.00389150936  0.999993517    0.2231279      0.999954602   
 9.6            0.794657697    0.794657697    0.00361298634  0.999990732    0.451726575    0.999954602   
 9.7            0.35873218     0.35873218     0.00331360424  0.999987738    0.698539261    0.999954602   
 9.8            0.35873218     0.35873218     0.00305415404  0.999985144    0.698539261    0.999954602   
 9.9            0.794657697    0.794657697    0.00294191487  0.999984021    0.451726575    0.999954602   
 10.            1.5            1.5            0.00315317454  0.999986134    0.2231279      0.999954602   
