#Time       v(n1)      v(n2)      i(r1)      method(c1) hidden(0)  dis(n1)    dis(n2)    v(r1)     
 0.         0.         0.         0.        -1.         0.         0.         0.         0.        
 0.1        0.         0.         0.         4.         0.         0.         0.         0.        
 1.         0.         0.         0.         2.         0.         2.         0.         0.        
 1.         170.99n    2.924p     170.98p    4.         4.         0.         0.         170.98n   
 1.         280.99n    5.409p     280.98p    2.         0.         0.         0.         280.98n   
 1.         66.394u    219.68n    66.174n    2.         1.         0.         0.         66.174u   
 1.         132.51u    873.56n    131.63n    2.         0.         0.         0.         131.63u   
 1.0001     615.47u    18.468u    597.n      2.         0.         0.         0.         597.u     
 1.0001     0.0010984  58.009u    1.0404u    2.         0.         0.         0.         0.0010404 
 1.0002     0.0019632  180.1u     1.7831u    2.         0.         0.         0.         0.0017831 
 1.0003     0.0028281  363.77u    2.4643u    2.         0.         0.         0.         0.0024643 
 1.0004     0.0044107  841.24u    3.5695u    2.         0.         0.         0.         0.0035695 
 1.0006     0.0059934  0.0014808  4.5126u    2.         0.         0.         0.         0.0045126 
 1.0009     0.0087162  0.0028886  5.8277u    2.         0.         0.         0.         0.0058277 
 1.0011     0.011439   0.0046115  6.8276u    2.         0.         0.         0.         0.0068276 
 1.0016     0.015942   0.0079485  7.9936u    2.         0.         0.         0.         0.0079936 
 1.002      0.020445   0.011714   8.7311u    2.         0.         0.         0.         0.0087311 
 1.0028     0.028023   0.018595   9.4284u    2.         0.         0.         0.         0.0094284 
 1.0036     0.035601   0.025858   9.7425u    2.         0.         0.         0.         0.0097425 
 1.005      0.049586   0.039631   9.9544u    2.         0.         0.         0.         0.0099544 
 1.0064     0.063571   0.053579   9.9919u    2.         0.         0.         0.         0.0099919 
 1.0096     0.096109   0.086107   10.002u    2.         0.         0.         0.         0.010002  
 1.0153     0.15305    0.14305    9.9991u    2.         0.         0.         0.         0.0099991 
 1.0317     0.3167     0.3067     10.001u    2.         0.         0.         0.         0.010001  
 1.0948     0.94827    0.93828    9.9993u    2.         0.         0.         0.         0.0099993 
 1.1        1.         0.99       10.u       2.         0.         2.         0.         0.01      
 1.1029     1.         0.99744    2.5586u    4.         2.         0.         0.         0.0025586 
 1.1058     1.         1.0005    -473.56n    2.         0.         0.         0.        -473.56u   
 1.112      1.         0.99976    241.17n    2.         0.         0.         0.         241.17u   
 1.1228     1.         1.0002    -165.8n     2.         0.         0.         0.        -165.8u    
 1.1336     1.         0.99989    113.99n    2.         0.         0.         0.         113.99u   
 1.1653     1.         1.0001    -100.49n    2.         0.         0.         0.        -100.49u   
 1.2239     1.         0.99991    93.845n    2.         0.         0.         0.         93.845u   
 1.3409     1.         1.0001    -90.689n    2.         0.         0.         0.        -90.689u   
 1.6115     1.         0.99991    89.36n     2.         0.         0.         0.         89.36u    
 2.1707     1.         1.0001    -88.721n    2.         0.         0.         0.        -88.721u   
 3.2892     1.         0.99991    88.407n    2.         0.         0.         0.         88.407u   
 5.5261     1.         1.0001    -88.247n    2.         0.         0.         0.        -88.247u   
 10.        1.         0.99991    88.17n     2.         0.         0.         0.         88.17u    
Gnucap   System status
iterations: op=0, dc=0, tran=164, fourier=0, total=210
transient timesteps: accepted=39, rejected=7, total=46
nodes: user=2, subckt=0, model=0, total=2
dctran density=100.0%, ac density=100.0%
#Time       v(n1)      v(n2)      i(r1)      method(c1) hidden(0)  dis(n1)    dis(n2)    v(r1)     
 0.         0.         0.         0.        -1.         0.         0.         0.         0.        
 0.1        0.         0.         0.         4.         0.         0.         0.         0.        
 1.         0.         0.         0.         2.         0.         2.         2.         0.        
 1.         170.99n    2.924p     170.98p    4.         4.         0.         0.         170.98n   
 1.         280.99n    5.409p     280.98p    2.         0.         0.         0.         280.98n   
 1.         146.77u    1.0692u    145.7n     2.         0.         0.         0.         145.7u    
 1.         234.85u    2.7332u    232.12n    2.         0.         0.         0.         232.12u   
 1.0001     767.08u    28.563u    738.52n    2.         0.         0.         0.         738.52u   
 1.0001     0.0012993  80.646u    1.2187u    2.         0.         0.         0.         0.0012187 
 1.0002     0.0022653  237.45u    2.0278u    2.         0.         0.         0.         0.0020278 
 1.0003     0.0032313  468.82u    2.7625u    2.         0.         0.         0.         0.0027625 
 1.0005     0.0049704  0.0010499  3.9204u    2.         0.         0.         0.         0.0039204 
 1.0007     0.0067095  0.0018163  4.8932u    2.         0.         0.         0.         0.0048932 
 1.001      0.0096705  0.0034602  6.2103u    2.         0.         0.         0.         0.0062103 
 1.0013     0.012631   0.0054437  7.1877u    2.         0.         0.         0.         0.0071877 
 1.0018     0.017524   0.0092305  8.2931u    2.         0.         0.         0.         0.0082931 
 1.0022     0.022416   0.013452   8.9641u    2.         0.         0.         0.         0.0089641 
 1.0031     0.030725   0.021153   9.5722u    2.         0.         0.         0.         0.0095722 
 1.0039     0.039034   0.02921    9.8233u    2.         0.         0.         0.         0.0098233 
 1.0055     0.054764   0.044785   9.9789u    2.         0.         0.         0.         0.0099789 
 1.007      0.070494   0.060497   9.9975u    2.         0.         0.         0.         0.0099975 
 1.0109     0.10946    0.099458   10.001u    2.         0.         0.         0.         0.010001  
 1.0182     0.18201    0.17201    9.9995u    2.         0.         0.         0.         0.0099995 
 1.0434     0.4336     0.4236     10.u       2.         0.         0.         0.         0.01      
 1.1        1.         0.99       9.9996u    2.         0.         2.         2.         0.0099996 
 1.1116     1.         0.99921    794.35n    4.         1.         0.         0.         794.35u   
 1.1194     1.         1.0005    -469.34n    2.         0.         0.         0.        -469.34u   
 1.1552     1.         0.99958    419.69n    2.         0.         0.         0.         419.69u   
 1.191      1.         1.0004    -375.28n    2.         0.         0.         0.        -375.28u   
 1.2517     1.         0.99965    351.36n    2.         0.         0.         0.         351.36u   
 1.3732     1.         1.0003    -339.98n    2.         0.         0.         0.        -339.98u   
 1.5608     1.         0.99967    332.81n    2.         0.         0.         0.         332.81u   
 1.8983     1.         1.0003    -328.89n    2.         0.         0.         0.        -328.89u   
 2.477      1.         0.99967    326.62n    2.         0.         0.         0.         326.62u   
 3.4174     1.         1.0003    -325.23n    2.         0.         0.         0.        -325.23u   
 5.0631     1.         0.99968    324.45n    2.         0.         0.         0.         324.45u   
 7.5315     1.         1.0003    -323.92n    2.         0.         0.         0.        -323.92u   
 10.        1.         0.99968    323.4n     2.         0.         0.         0.         323.4u    
Gnucap   System status
iterations: op=0, dc=0, tran=154, fourier=0, total=407
transient timesteps: accepted=77, rejected=12, total=89
nodes: user=2, subckt=0, model=0, total=2
dctran density=100.0%, ac density=100.0%
