#Time       v(n1)      v(n2)      i(r1)      method(c1) hidden(0)  dis(n1)    dis(n2)    v(r1)     
 0.         0.         0.         0.        -1.         0.         0.         0.         0.        
 0.1        0.         0.         0.         4.         0.         0.         0.         0.        
 0.2        0.         0.         0.         2.         0.         0.         0.         0.        
 0.3        0.         0.         0.         2.         0.         0.         0.         0.        
 0.4        0.         0.         0.         2.         0.         0.         0.         0.        
 0.5        0.         0.         0.         2.         0.         0.         0.         0.        
 1.         0.         0.         0.         2.         0.         2.         0.         0.        
 1.1        1.         0.98039    19.608u    2.         0.         2.         0.         0.019608  
 1.2        1.         1.0188    -18.839u    2.         0.         0.         0.        -0.018839  
 1.254      1.         0.98251    17.493u    2.         0.         0.         0.         0.017493  
 1.308      1.         1.0162    -16.243u    2.         0.         0.         0.        -0.016243  
 1.362      1.         0.98492    15.083u    2.         0.         0.         0.         0.015083  
 1.416      1.         1.014     -14.005u    2.         0.         0.         0.        -0.014005  
 1.4699     1.         0.987      13.005u    2.         0.         0.         0.         0.013005  
 1.5239     1.         1.0121    -12.075u    2.         0.         0.         0.        -0.012075  
 1.5779     1.         0.98879    11.213u    2.         0.         0.         0.         0.011213  
 1.6319     1.         1.0104    -10.412u    2.         0.         0.         0.        -0.010412  
 1.6859     1.         0.99033    9.6678u    2.         0.         0.         0.         0.0096678 
 1.7399     1.         1.009     -8.9771u    2.         0.         0.         0.        -0.0089771 
 1.7939     1.         0.99166    8.3357u    2.         0.         0.         0.         0.0083357 
 1.8479     1.         1.0077    -7.7402u    2.         0.         0.         0.        -0.0077402 
 1.9018     1.         0.99281    7.1872u    2.         0.         0.         0.         0.0071872 
 1.9558     1.         1.0067    -6.6737u    2.         0.         0.         0.        -0.0066737 
 2.0098     1.         0.9938     6.1969u    2.         0.         0.         0.         0.0061969 
 2.0638     1.         1.0058    -5.7542u    2.         0.         0.         0.        -0.0057542 
 2.1178     1.         0.99466    5.3431u    2.         0.         0.         0.         0.0053431 
 2.1718     1.         1.005     -4.9613u    2.         0.         0.         0.        -0.0049613 
 2.2258     1.         0.99539    4.6069u    2.         0.         0.         0.         0.0046069 
 2.2798     1.         1.0043    -4.2778u    2.         0.         0.         0.        -0.0042778 
 2.3337     1.         0.99603    3.9721u    2.         0.         0.         0.         0.0039721 
 2.3877     1.         1.0037    -3.6883u    2.         0.         0.         0.        -0.0036883 
 2.4417     1.         0.99658    3.4248u    2.         0.         0.         0.         0.0034248 
 2.4957     1.         1.0032    -3.1801u    2.         0.         0.         0.        -0.0031801 
 2.5497     1.         0.99705    2.9529u    2.         0.         0.         0.         0.0029529 
 2.6037     1.         1.0027    -2.742u     2.         0.         0.         0.        -0.002742  
 2.685      1.         0.99739    2.6103u    2.         0.         0.         0.         0.0026103 
 2.7662     1.         1.0025    -2.4849u    2.         0.         0.         0.        -0.0024849 
 2.8475     1.         0.99763    2.3655u    2.         0.         0.         0.         0.0023655 
 2.9776     1.         1.0023    -2.2939u    2.         0.         0.         0.        -0.0022939 
 3.1076     1.         0.99778    2.2244u    2.         0.         0.         0.         0.0022244 
 3.2377     1.         1.0022    -2.157u     2.         0.         0.         0.        -0.002157  
 3.449      1.         0.99788    2.1166u    2.         0.         0.         0.         0.0021166 
 3.6603     1.         1.0021    -2.0769u    2.         0.         0.         0.        -0.0020769 
 3.8716     1.         0.99796    2.0379u    2.         0.         0.         0.         0.0020379 
 4.2321     1.         1.002     -2.0154u    2.         0.         0.         0.        -0.0020154 
 4.5926     1.         0.99801    1.9932u    2.         0.         0.         0.         0.0019932 
 4.9531     1.         1.002     -1.9712u    2.         0.         0.         0.        -0.0019712 
 5.5139     1.         0.99804    1.9572u    2.         0.         0.         0.         0.0019572 
 6.0746     1.         1.0019    -1.9433u    2.         0.         0.         0.        -0.0019433 
 6.8597     1.         0.99807    1.9334u    2.         0.         0.         0.         0.0019334 
 7.6448     1.         1.0019    -1.9236u    2.         0.         0.         0.        -0.0019236 
 8.8224     1.         0.99808    1.9171u    2.         0.         0.         0.         0.0019171 
 10.        1.         1.0019    -1.9106u    2.         0.         0.         0.        -0.0019106 
Gnucap   System status
iterations: op=0, dc=0, tran=205, fourier=0, total=258
transient timesteps: accepted=53, rejected=0, total=53
nodes: user=2, subckt=0, model=0, total=2
dctran density=100.0%, ac density=100.0%
#Time       v(n1)      v(n2)      i(r1)      method(c1) hidden(0)  dis(n1)    dis(n2)    v(r1)     
 0.         0.         0.         0.        -1.         0.         0.         0.         0.        
 0.1        0.         0.         0.         4.         0.         0.         0.         0.        
 0.2        0.         0.         0.         2.         0.         0.         0.         0.        
 0.3        0.         0.         0.         2.         0.         0.         0.         0.        
 0.4        0.         0.         0.         2.         0.         0.         0.         0.        
 0.5        0.         0.         0.         2.         0.         0.         0.         0.        
 1.         0.         0.         0.         2.         0.         2.         2.         0.        
 1.         7.1445u    5.1007n    7.1394n    4.         3.         0.         0.         7.1394u   
 1.         72.51u     264.55n    72.245n    2.         1.         0.         0.         72.245u   
 1.         137.87u    948.17n    136.93n    2.         0.         0.         0.         136.93u   
 1.         297.51u    4.3808u    293.13n    2.         0.         0.         0.         293.13u   
 1.0001     716.16u    24.985u    691.17n    2.         0.         0.         0.         691.17u   
 1.0001     0.0011348  61.91u     1.0729u    2.         0.         0.         0.         0.0010729 
 1.0002     0.0019951  185.88u    1.8092u    2.         0.         0.         0.         0.0018092 
 1.0003     0.0028553  370.58u    2.4848u    2.         0.         0.         0.         0.0024848 
 1.0004     0.0044612  859.3u     3.6019u    2.         0.         0.         0.         0.0036019 
 1.0006     0.0060671  0.0015141  4.553u     2.         0.         0.         0.         0.004553  
 1.0009     0.0088175  0.0029474  5.87u      2.         0.         0.         0.         0.00587   
 1.0012     0.011568   0.0046992  6.8686u    2.         0.         0.         0.         0.0068686 
 1.0016     0.016111   0.0080833  8.028u     2.         0.         0.         0.         0.008028  
 1.0021     0.020655   0.011897   8.7581u    2.         0.         0.         0.         0.0087581 
 1.0028     0.028309   0.018863   9.4455u    2.         0.         0.         0.         0.0094455 
 1.0036     0.035963   0.02621    9.7525u    2.         0.         0.         0.         0.0097525 
 1.005      0.050126   0.040168   9.9577u    2.         0.         0.         0.         0.0099577 
 1.0064     0.064289   0.054296   9.9928u    2.         0.         0.         0.         0.0099928 
 1.0097     0.097451   0.087449   10.002u    2.         0.         0.         0.         0.010002  
 1.0156     0.15587    0.14587    9.9991u    2.         0.         0.         0.         0.0099991 
 1.0327     0.32667    0.31667    10.001u    2.         0.         0.         0.         0.010001  
 1.1        1.         0.99       9.9993u    2.         0.         2.         2.         0.0099993 
 1.456      1.         0.99997    28.01n     4.         0.         0.         0.         28.01u    
 1.812      1.         1.        -27.695n    2.         0.         0.         0.        -27.695u   
 2.8355     1.         0.99997    27.589n    2.         0.         0.         0.         27.589u   
 3.859      1.         1.        -27.48n     2.         0.         0.         0.        -27.48u    
 6.9295     1.         0.99997    27.446n    2.         0.         0.         0.         27.446u   
 10.        1.         1.        -27.408n    2.         0.         0.         0.        -27.408u   
Gnucap   System status
iterations: op=0, dc=0, tran=141, fourier=0, total=438
transient timesteps: accepted=88, rejected=4, total=92
nodes: user=2, subckt=0, model=0, total=2
dctran density=100.0%, ac density=100.0%
