>>>>>.model NMOS NMOS Level = 49 Tox = 8.e-09 Vth0 = 0.3999 
>>>>>.model PMOS PMOS Level= 49 version =3.23 Tox= 8.0e-09 Vth0= -0.42 
>>>>>.SUBCKT op nout ninp ninn vdd gnd 
>>>>>.verilog 
>>>>>spice
>>>>>.options incmode=no 
>>>>>.print tran v(nodes) 
>>>>>.print dc v(nodes) 
>>>>>.sock dm nobinout 
#           v(nin)     v(ninp)    v(nmid)    v(nout)    v(vdd)    
i,u: 
 0., 0.
 0., 0.
 0., 488.2812u
 0., 0.
 0., 2.661557
 0., 0.6070918
 0., 2.661557
 0., 0.3629747
 0., 2.639094
 0., 1.65
 0., 1.125
 0., 3.3
 0., 1.125
 0., 1.12521
G
 0.  0.  0.  0.  0.  0.  0.  0.  1.  0.  0.  0.  0. 
 0.  0.  0.  0.  0.  0.  0.  0.  0.  0.  1.  0.  0. 
 0.  0.  0.  0.  0.  0.  0.  0.  0.  1.  0.  0.  0. 
 0.  0.  0.  833.3333u  0. -833.3333u  0.  0.  0.  0.  0.  0.  0. 
 0.  0.  0.  0.  109.4441u  0.  0.  0.  0.  0.  0.  0.  0. 
 0.  0.  0. -833.3333u  0.  836.0202u -369.1753u  316.6679u  0.  0. -318.0798u  287.1957u  0. 
 0.  0.  0.  0.  612.0017u -1.275005u  741.9529u -1.275851u  0.  0.  0. -287.1957u -287.2664u 
 0.  0.  0.  0.  0.  0. -369.2653u  319.6297u  0.  0. -318.3538u  0.  287.2664u 
 1.  0.  0.  0.  0.  0.  0.  0.  20.u  0.  0.  0. -20.u 
 0.  0.  1.  0.  0.  0.  0.  0.  0.  0.001  0. -0.001  0. 
 0.  1.  0.  0.  0. -0.001413636  0. -635.0218u  0.  0.  0.002053576  0. -4.917694u 
 0.  0.  0.  0.  0.  0.  0.  0.  0. -0.001  0.  0.001  0. 
 0.  0.  0.  0.  0.001363961  0.001412224  0.  0. -20.u  0. -0.001417142  0.  29.90741u 
C
 0.  0.  0.  0.  0.  0.  0.  0.  0.  0.  0.  0.  0. 
 0.  0.  0.  0.  0.  0.  0.  0.  0.  0.  0.  0.  0. 
 0.  0.  0.  0.  0.  0.  0.  0.  0.  0.  0.  0.  0. 
 0.  0.  0.  40.p  0.  0.  0.  0.  0.  0.  0.  0. -40.p 
 0.  0.  0.  0.  4.601845p  0. -47.76319f  0.  0.  0.  0.  0. -95.15423f 
 0.  0.  0.  0.  0.  1.166883p  73.38328f -89.14348f  0.  0. -972.3046f -67.4774f -94.98538f 
 0.  0.  0.  0. -485.1325f  389.605E-21  289.8454f  402.26E-21  0.  0.  0. -95.97948f -95.984f 
 0.  0.  0.  0.  0. -20.96309f  73.3873f  422.7462f  0.  0. -391.3334f  0. -67.4806f 
 0.  0.  0.  0.  0.  0.  0.  0.  2.p  0.  0.  0. -2.p 
 0.  0.  0.  0.  0.  0.  0.  0.  0.  0.  0.  0.  0. 
 0.  0.  0.  0.  0. -732.6753f  0. -323.153f  0.  0.  1.055832p  0. -3.68477E-18 
 0.  0.  0.  0.  0. -10.44927f -144.0497f  0.  0.  0.  0.  191.0327f  0. 
 0.  0.  0. -40.p -1.026366p -402.7951f -144.0612f -10.44931f -2.p  0.  307.806f  0.  42.38124p 
#           v(nin)     v(ninp)    v(nmid)    v(nout)    v(vdd)    
i,u: 
 0., 0.
 0., 0.
 0., 0.
 0., 244.1406u
 0., 2.662087
 0., 0.6070918
 0., 2.662087
 0., 0.3436515
 0., 2.639205
 0., 1.65
 0., 1.1
 0., 3.3
 0., 1.1
 0., 1.100213
G
 0.  0.  0.  0.  0.  0.  0.  0.  1.  0.  0.  0.  0. 
 0.  0.  0.  0.  0.  0.  0.  0.  0.  0.  1.  0.  0. 
 0.  0.  0.  0.  0.  0.  0.  0.  0.  1.  0.  0.  0. 
 0.  0.  0.  833.3333u  0. -833.3333u  0.  0.  0.  0.  0.  0.  0. 
 0.  0.  0.  0.  109.4441u  0.  0.  0.  0.  0.  0.  0.  0. 
 0.  0.  0. -833.3333u  0.  836.0192u -370.0262u  316.4811u  0.  0. -317.8919u  287.0568u  0. 
 0.  0.  0.  0.  611.1785u -1.274997u  743.9693u -1.275746u  0.  0.  0. -287.0568u -287.1289u 
 0.  0.  0.  0.  0.  0. -370.118u  319.454u  0.  0. -318.1782u  0.  287.1289u 
 1.  0.  0.  0.  0.  0.  0.  0.  20.u  0.  0.  0. -20.u 
 0.  0.  1.  0.  0.  0.  0.  0.  0.  0.001  0. -0.001  0. 
 0.  1.  0.  0.  0. -0.001410478  0. -634.6593u  0.  0.  0.002050038  0. -4.900042u 
 0.  0.  0.  0.  0.  0.  0.  0.  0. -0.001  0.  0.001  0. 
 0.  0.  0.  0.  0.001363013  0.001409068  0.  0. -20.u  0. -0.001413968  0.  29.89503u 
C
 0.  0.  0.  0.  0.  0.  0.  0.  0.  0.  0.  0.  0. 
 0.  0.  0.  0.  0.  0.  0.  0.  0.  0.  0.  0.  0. 
 0.  0.  0.  0.  0.  0.  0.  0.  0.  0.  0.  0.  0. 
 0.  0.  0.  40.p  0.  0.  0.  0.  0.  0.  0.  0. -40.p 
 0.  0.  0.  0.  4.602621p  0. -48.47093f  0.  0.  0.  0.  0. -95.16698f 
 0.  0.  0.  0.  0.  1.16673p  73.58928f -89.14138f  0.  0. -972.1535f -67.47108f -94.98516f 
 0.  0.  0.  0. -486.1081f  378.885E-21  291.3868f  391.314E-21  0.  0.  0. -95.97024f -95.97487f 
 0.  0.  0.  0.  0. -20.96321f  73.5934f  422.7374f  0.  0. -391.3245f  0. -67.47434f 
 0.  0.  0.  0.  0.  0.  0.  0.  2.p  0.  0.  0. -2.p 
 0.  0.  0.  0.  0.  0.  0.  0.  0.  0.  0.  0.  0. 
 0.  0.  0.  0.  0. -732.5903f  0. -323.1464f  0.  0.  1.05574p  0. -3.59202E-18 
 0.  0.  0.  0.  0. -10.44924f -144.2025f  0.  0.  0.  0.  191.1797f  0. 
 0.  0.  0. -40.p -1.026408p -402.7265f -144.2142f -10.44927f -2.p  0.  307.7377f  0.  42.38141p 
#           v(nin)     v(ninp)    v(nmid)    v(nout)    v(vdd)    
i,u: 
 0., 0.
 0., 0.
 0.,-488.2812u
 0., 0.
 0., 2.661028
 0., 0.6070918
 0., 2.661028
 0., 0.3823582
 0., 2.638992
 0., 1.65
 0., 1.15
 0., 3.3
 0., 1.15
 0., 1.150206
G
 0.  0.  0.  0.  0.  0.  0.  0.  1.  0.  0.  0.  0. 
 0.  0.  0.  0.  0.  0.  0.  0.  0.  0.  1.  0.  0. 
 0.  0.  0.  0.  0.  0.  0.  0.  0.  1.  0.  0.  0. 
 0.  0.  0.  833.3333u  0. -833.3333u  0.  0.  0.  0.  0.  0.  0. 
 0.  0.  0.  0.  109.4441u  0.  0.  0.  0.  0.  0.  0.  0. 
 0.  0.  0. -833.3333u  0.  836.0212u -368.3282u  316.8417u  0.  0. -318.2545u  287.3226u  0. 
 0.  0.  0.  0.  612.7241u -1.275043u  740.0234u -1.275976u  0.  0.  0. -287.3226u -287.392u 
 0.  0.  0.  0.  0.  0. -368.4163u  319.7994u  0.  0. -318.5234u  0.  287.392u 
 1.  0.  0.  0.  0.  0.  0.  0.  20.u  0.  0.  0. -20.u 
 0.  0.  1.  0.  0.  0.  0.  0.  0.  0.001  0. -0.001  0. 
 0.  1.  0.  0.  0. -0.001416778  0. -635.3651u  0.  0.  0.002057079  0. -4.936131u 
 0.  0.  0.  0.  0.  0.  0.  0.  0. -0.001  0.  0.001  0. 
 0.  0.  0.  0.  0.001364906  0.001415365  0.  0. -20.u  0. -0.001420301  0.  29.92099u 
C
 0.  0.  0.  0.  0.  0.  0.  0.  0.  0.  0.  0.  0. 
 0.  0.  0.  0.  0.  0.  0.  0.  0.  0.  0.  0.  0. 
 0.  0.  0.  0.  0.  0.  0.  0.  0.  0.  0.  0.  0. 
 0.  0.  0.  40.p  0.  0.  0.  0.  0.  0.  0.  0. -40.p 
 0.  0.  0.  0.  4.60121p  0. -47.20712f  0.  0.  0.  0.  0. -95.14263f 
 0.  0.  0.  0.  0.  1.167035p  73.18145f -89.14539f  0.  0. -972.4544f -67.48355f -94.98561f 
 0.  0.  0.  0. -484.3377f  400.747E-21  288.5128f  413.626E-21  0.  0.  0. -95.98845f -95.99287f 
 0.  0.  0.  0.  0. -20.96296f  73.18538f  422.7544f  0.  0. -391.3418f  0. -67.48668f 
 0.  0.  0.  0.  0.  0.  0.  0.  2.p  0.  0.  0. -2.p 
 0.  0.  0.  0.  0.  0.  0.  0.  0.  0.  0.  0.  0. 
 0.  0.  0.  0.  0. -732.7595f  0. -323.1593f  0.  0.  1.055923p  0. -3.78216E-18 
 0.  0.  0.  0.  0. -10.44931f -143.8993f  0.  0.  0.  0.  190.8869f  0. 
 0.  0.  0. -40.p -1.026328p -402.863f -143.9105f -10.44935f -2.p  0.  307.8736f  0.  42.38108p 
 0.         1.125      1.125      1.65       1.1752     3.3       
#           v(nin)     v(ninp)    v(nmid)    v(nout)    v(vdd)    
 0.         1.125      1.125      1.65       1.1752     3.3       
u,dq=i: 
 0.        , 0.        
 244.14u   , 0.        
 0.        , 0.        
 0.        , 0.        
 2.6543    , 14.164u   
 0.60709   , 0.        
 2.6713    , 0.        
 0.38341   , 0.        
 2.6178    , 0.        
 1.65      , 741.78n   
 1.125     , 0.        
 3.3       , 0.        
 1.125     , 0.        
 1.1752    ,-14.906u   
G
 0.          0.          0.          0.          0.          0.          0.          0.          1.          0.          0.          0.          0.         
 0.          0.          0.          0.          0.          0.          0.          0.          0.          0.          1.          0.          0.         
 0.          0.          0.          0.          0.          0.          0.          0.          0.          1.          0.          0.          0.         
 0.          0.          0.          833.33u     0.         -833.33u     0.          0.          0.          0.          0.          0.          0.         
 0.          0.          0.          0.          109.44u     0.          0.          0.          0.          0.          0.          0.          0.         
 0.          0.          0.         -833.33u     0.          836.1u     -324.2u      350.26u     0.          0.         -351.98u     252.95u     0.         
 0.          0.          0.          0.          612.76u    -1.0523u     732.56u    -1.4805u     0.          0.          0.         -252.95u    -316.04u    
 0.          0.          0.          0.          0.          0.         -405.1u      354.16u     0.          0.         -352.68u     0.          316.04u    
 1.          0.          0.          0.          0.          0.          0.          0.          20.u        0.          0.          0.         -20.u       
 0.          0.          1.          0.          0.          0.          0.          0.          0.          0.001       0.         -0.001       0.         
 0.          1.          0.          0.          0.         -0.0013331   0.         -702.95u     0.          0.          0.0020405   0.         -4.5013u    
 0.          0.          0.          0.          0.          0.          0.          0.          0.         -0.001       0.          0.001       0.         
 0.          0.          0.          0.          0.0013658   0.0013314   0.          0.         -20.u        0.         -0.0013359   0.          29.482u    
C
 0.          0.          0.          0.          0.          0.          0.          0.          0.          0.          0.          0.          0.         
 0.          0.          0.          0.          0.          0.          0.          0.          0.          0.          0.          0.          0.         
 0.          0.          0.          0.          0.          0.          0.          0.          0.          0.          0.          0.          0.         
 0.          0.          0.          40.p        0.          0.          0.          0.          0.          0.          0.          0.         -40.p       
 0.          0.          0.          0.          4.6012p     0.         -47.181f     0.          0.          0.          0.          0.         -95.132f    
 0.          0.          0.          0.          0.          1.1639p     72.589f    -89.569f     0.          0.         -968.88f    -67.025f    -94.985f    
 0.          0.          0.          0.         -484.3f      332.8E-21   288.12f     490.5E-21   0.          0.          0.         -95.301f    -96.429f    
 0.          0.          0.          0.          0.         -20.98f      73.542f     424.33f     0.          0.         -392.9f      0.         -67.778f    
 0.          0.          0.          0.          0.          0.          0.          0.          2.p         0.          0.          0.         -2.p        
 0.          0.          0.          0.          0.          0.          0.          0.          0.          0.          0.          0.          0.         
 0.          0.          0.          0.          0.         -731.01f     0.         -324.31f     0.          0.          1.0553p     0.         -3.68E-18   
 0.          0.          0.          0.          0.         -10.449f    -142.27f     0.          0.          0.          0.          189.77f     0.         
 0.          0.          0.         -40.p       -1.0263p    -401.44f    -145.05f    -10.45f     -2.p         0.          306.45f     0.          42.382p    
 0.         1.125      1.125      1.65       1.0752     3.3       
#           v(nin)     v(ninp)    v(nmid)    v(nout)    v(vdd)    
 0.         1.125      1.125      1.65       1.0752     3.3       
u,dq=i: 
 0.        , 0.        
 244.14u   , 0.        
-976.56u   , 0.        
 0.        , 0.        
 2.6688    ,-14.165u   
 0.60709   , 0.        
 2.6518    , 0.        
 0.34473   , 0.        
 2.663     , 0.        
 1.65      ,-1.5457u   
 1.125     , 0.        
 3.3       , 0.        
 1.125     , 0.        
 1.0752    , 15.711u   
G
 0.          0.          0.          0.          0.          0.          0.          0.          1.          0.          0.          0.          0.         
 0.          0.          0.          0.          0.          0.          0.          0.          0.          0.          1.          0.          0.         
 0.          0.          0.          0.          0.          0.          0.          0.          0.          1.          0.          0.          0.         
 0.          0.          0.          833.33u     0.         -833.33u     0.          0.          0.          0.          0.          0.          0.         
 0.          0.          0.          0.          109.44u     0.          0.          0.          0.          0.          0.          0.          0.         
 0.          0.          0.         -833.33u     0.          835.93u    -406.99u     276.45u     0.          0.         -277.56u     315.77u     0.         
 0.          0.          0.          0.          611.23u    -1.4794u     736.6u     -1.0531u     0.          0.          0.         -315.77u    -252.81u    
 0.          0.          0.          0.          0.          0.         -325.8u      278.49u     0.          0.         -277.44u     0.          252.81u    
 1.          0.          0.          0.          0.          0.          0.          0.          20.u        0.          0.          0.         -20.u       
 0.          0.          1.          0.          0.          0.          0.          0.          0.          0.001       0.         -0.001       0.         
 0.          1.          0.          0.          0.         -0.0014923   0.         -553.89u     0.          0.          0.0020515   0.         -5.3487u    
 0.          0.          0.          0.          0.          0.          0.          0.          0.         -0.001       0.          0.001       0.         
 0.          0.          0.          0.          0.0013621   0.0014912   0.          0.         -20.u        0.         -0.0014965   0.          30.349u    
C
 0.          0.          0.          0.          0.          0.          0.          0.          0.          0.          0.          0.          0.         
 0.          0.          0.          0.          0.          0.          0.          0.          0.          0.          0.          0.          0.         
 0.          0.          0.          0.          0.          0.          0.          0.          0.          0.          0.          0.          0.         
 0.          0.          0.          40.p        0.          0.          0.          0.          0.          0.          0.          0.         -40.p       
 0.          0.          0.          0.          4.6026p     0.         -48.427f     0.          0.          0.          0.          0.         -95.181f    
 0.          0.          0.          0.          0.          1.1695p     73.95f     -88.466f     0.          0.         -975.58f    -67.764f    -94.985f    
 0.          0.          0.          0.         -486.05f     442.E-21    290.97f     319.1E-21   0.          0.          0.         -96.409f    -95.282f    
 0.          0.          0.          0.          0.         -20.948f     72.992f     420.4f      0.          0.         -389.f       0.         -67.012f    
 0.          0.          0.          0.          0.          0.          0.          0.          2.p         0.          0.          0.         -2.p        
 0.          0.          0.          0.          0.          0.          0.          0.          0.          0.          0.          0.          0.         
 0.          0.          0.          0.          0.         -734.16f     0.         -321.48f     0.          0.          1.0556p     0.         -3.684E-18  
 0.          0.          0.          0.          0.         -10.449f    -145.35f     0.          0.          0.          0.          191.93f     0.         
 0.          0.          0.         -40.p       -1.0265p    -403.93f    -142.56f    -10.449f    -2.p         0.          308.94f     0.          42.38p     
 0.         1.1        1.1        1.65       1.1502     3.3       
#           v(nin)     v(ninp)    v(nmid)    v(nout)    v(vdd)    
 0.         1.1        1.1        1.65       1.1502     3.3       
u,dq=i: 
 0.        , 0.        
 0.        , 0.        
 0.        , 0.        
 244.14u   , 0.        
 2.6549    , 14.157u   
 0.60709   , 0.        
 2.6719    , 0.        
 0.36402   , 0.        
 2.6179    , 0.        
 1.65      , 741.74n   
 1.1       , 0.        
 3.3       , 0.        
 1.1       , 0.        
 1.1502    ,-14.899u   
G
 0.          0.          0.          0.          0.          0.          0.          0.          1.          0.          0.          0.          0.         
 0.          0.          0.          0.          0.          0.          0.          0.          0.          0.          1.          0.          0.         
 0.          0.          0.          0.          0.          0.          0.          0.          0.          1.          0.          0.          0.         
 0.          0.          0.          833.33u     0.         -833.33u     0.          0.          0.          0.          0.          0.          0.         
 0.          0.          0.          0.          109.44u     0.          0.          0.          0.          0.          0.          0.          0.         
 0.          0.          0.         -833.33u     0.          836.1u     -324.91u     350.1u      0.          0.         -351.81u     252.81u     0.         
 0.          0.          0.          0.          612.04u    -1.0522u     734.45u    -1.4803u     0.          0.          0.         -252.81u    -315.92u    
 0.          0.          0.          0.          0.          0.         -406.05u     354.u       0.          0.         -352.52u     0.          315.92u    
 1.          0.          0.          0.          0.          0.          0.          0.          20.u        0.          0.          0.         -20.u       
 0.          0.          1.          0.          0.          0.          0.          0.          0.          0.001       0.         -0.001       0.         
 0.          1.          0.          0.          0.         -0.0013296   0.         -702.62u     0.          0.          0.0020367   0.         -4.4818u    
 0.          0.          0.          0.          0.          0.          0.          0.          0.         -0.001       0.          0.001       0.         
 0.          0.          0.          0.          0.0013649   0.0013279   0.          0.         -20.u        0.         -0.0013324   0.          29.467u    
C
 0.          0.          0.          0.          0.          0.          0.          0.          0.          0.          0.          0.          0.         
 0.          0.          0.          0.          0.          0.          0.          0.          0.          0.          0.          0.          0.         
 0.          0.          0.          0.          0.          0.          0.          0.          0.          0.          0.          0.          0.         
 0.          0.          0.          40.p        0.          0.          0.          0.          0.          0.          0.          0.         -40.p       
 0.          0.          0.          0.          4.6018p     0.         -47.73f      0.          0.          0.          0.          0.         -95.143f    
 0.          0.          0.          0.          0.          1.1637p     72.786f    -89.568f     0.          0.         -968.69f    -67.017f    -94.985f    
 0.          0.          0.          0.         -485.09f     323.6E-21   289.44f     476.7E-21   0.          0.          0.         -95.289f    -96.421f    
 0.          0.          0.          0.          0.         -20.98f      73.746f     424.33f     0.          0.         -392.9f      0.         -67.772f    
 0.          0.          0.          0.          0.          0.          0.          0.          2.p         0.          0.          0.         -2.p        
 0.          0.          0.          0.          0.          0.          0.          0.          0.          0.          0.          0.          0.         
