*Vdd 4 0 pulse iv=0 pv=5 rise=1p 
Vdd ( 4 0 )  DC  5.
C1 ( 2 out )  5.p
C2 ( 1 3 )  5.p
C3 ( 3 0 )  1.p ic= 0.
R1 ( 4 1 )  50.K
R2 ( 4 2 )  2.Meg
R3 ( 4 3 )  2.Meg
R4 ( 4 out )  50.K
R5 ( 2 0 )  500.K
R6 ( 3 0 )  500.K
MN1 ( 1 2 0 0 ) nmos l=8u w=NA( 100.u)
MN2 ( out 3 0 0 ) nmos l=8u w=NA( 100.u)
.model nmos nmos1 ( level=1 lambda=3e-2 tox=8n nsub=2.5e17 nss=NA( 0.) uo=NA( 600.) tpg=1 tnom=NA( 27.) fc=NA( 0.5) pb=0.7256 cj=1e-3 mj=0.315 cjsw=4.054e-10 mjsw=0.2313 is=1E-21 cbd=1f cgso=0.3n cgdo=0.3n cgbo=NA( 0.) ld=NA( 0.))
#           v(1)       v(2)       v(3)       v(4)       v(out)    
 0.         0.064086   1.         25.p       5.         5.        
#Time       v(1)       v(2)       v(3)       v(4)       v(out)     v0t(0)     v0dist(0) 
 0.         0.064086   1.         25.E-12    5.         5.         ??         0.        
 10.E-9     0.064932   1.0004     0.0036311  5.         5.0004     ??         14.232E-6 
 20.E-9     0.065042   1.0005     0.0067827  5.         5.0005     ??         47.438E-6 
 30.E-9     0.065072   1.0005     0.0098743  5.         5.0005     ??         99.003E-6 
 40.E-9     0.065062   1.0006     0.012936   5.         5.0007     ??         169.06E-6 
 50.E-9     0.065076   1.0004     0.016009   5.         5.0006     ??         257.76E-6 
 168.75E-9  0.064847   1.0019     0.052003   5.         5.0019     ??         0.0027122 
 335.E-9    0.064854   1.001      0.099591   5.         5.0005     ??         0.0099203 
 667.5E-9   0.064609   1.0023     0.18553    5.         5.0012     ??         0.034427  
 1.E-6      0.064633   1.0014     0.26383    5.         5.         ??         0.069609  
 1.5E-6     0.064397   1.0025     0.36745    5.         5.0008     ??         0.13502   
 2.E-6      0.064397   1.0016     0.45639    5.         4.9998     ??         0.2083    
 2.3333E-6  0.065271   0.99492    0.50893    5.         4.9868     ??         0.25921   
 2.5556E-6  0.076922   0.92312    0.5468     5.         4.8563     ??         0.32572   
 2.6296E-6  0.091575   0.86187    0.56535    5.         4.7456     ??         0.40418   
 2.6759E-6  0.11795    0.79326    0.58659    5.         4.6177     ??         0.53588   
 2.6962E-6  0.1539     0.73884    0.61043    5.         4.5163     ??         0.6829    
 2.7009E-6  0.17237    0.71922    0.62194    5.         4.4811     ??         0.74662   
 2.7056E-6  0.21924    0.68259    0.65029    5.         4.4206     ??         0.8834    
 2.7203E-6  0.64436   -0.14636    0.901      5.         3.1656     ??         5.8275    
 2.73E-6    1.003     -1.3882     1.1082     5.         1.1512     ??         22.626    
 2.7375E-6  1.071     -1.9551     1.0612     5.         0.17725    ??         34.132    
 2.745E-6   1.2624    -2.0233     1.1392     5.         0.044624   ??         36.43     
 2.7525E-6  1.4955    -2.0041     1.2648     5.         0.064505   ??         37.032    
 2.76E-6    1.6989    -2.0101     1.3675     5.         0.044033   ??         38.165    
 2.7675E-6  1.8969    -2.0021     1.4706     5.         0.043136   ??         39.105    
 2.7811E-6  2.2239    -1.9945     1.6387     5.         0.033467   ??         40.984    
 2.7948E-6  2.5169    -1.9826     1.7895     5.         0.030258   ??         42.813    
 2.8241E-6  3.0416    -1.9591     2.0569     5.         0.023124   ??         46.621    
 2.8681E-6  3.6223    -1.9204     2.3475     5.         0.019347   ??         51.507    
 2.9341E-6  4.1734    -1.8642     2.6108     5.         0.015636   ??         56.75     
 3.E-6      4.4823    -1.8084     2.7439     5.         0.014887   ??         59.788    
 3.0659E-6  4.6553    -1.7545     2.8039     5.         0.013781   ??         61.391    
 3.1594E-6  4.7823    -1.6794     2.8261     5.         0.013999   ??         62.288    
 3.2528E-6  4.8378    -1.607      2.8106     5.         0.013527   ??         62.349    
 3.4022E-6  4.8733    -1.4945     2.7593     5.         0.014279   ??         61.822    
 3.5517E-6  4.8842    -1.3874     2.6971     5.         0.01415    ??         61.066    
 3.7758E-6  4.8925    -1.2346     2.6044     5.         0.015268   ??         59.937    
 4.E-6      4.8983    -1.092      2.5156     5.         0.015372   ??         58.921    
 4.5E-6     4.9106    -0.80471    2.3351     5.         0.017422   ??         57.025    
 5.E-6      4.9211    -0.5572     2.1758     5.         0.01838    ??         55.566    
 6.E-6      4.9391    -0.1361     1.9117     5.         0.022542   ??         53.486    
 7.E-6      4.9526     0.19351    1.7066     5.         0.025396   ??         52.207    
 8.E-6      4.9635     0.43319    1.5483     5.         0.030222   ??         51.422    
 8.5E-6     4.9119     0.52317    1.4555     5.         0.031954   ??         50.529    
 9.E-6      3.9981     0.61843    0.95486    5.         0.070392   ??         40.835    
 9.0417E-6  3.829      0.63288    0.86916    5.         0.08459    ??         39.226    
 9.0683E-6  3.6574     0.65693    0.78475    5.         0.11626    ??         37.497    
 9.0748E-6  3.5992     0.66649    0.75542    5.         0.1292     ??         36.903    
 9.0812E-6  3.5218     0.68613    0.71714    5.         0.15661    ??         36.027    
 9.0846E-6  3.4588     0.71369    0.68208    5.         0.19686    ??         35.141    
 9.091E-6   3.0182     0.87956    0.41957    5.         0.44363    ??         29.678    
 9.0975E-6  1.8608     1.0923    -0.24643    5.         0.76439    ??         21.238    
 9.1007E-6  0.98669    1.1866    -0.71616    5.         0.90856    ??         18.139    
 9.1056E-6  0.20474    1.1148    -1.1247     5.         0.91519    ??         17.984    
 9.109E-6   0.083636   1.1351    -1.1861     5.         0.98818    ??         17.52     
 9.1123E-6  0.067382   1.2004    -1.1923     5.         1.1051     ??         16.632    
 9.1156E-6  0.059544   1.2674    -1.1936     5.         1.2223     ??         15.768    
 9.1207E-6  0.051206   1.3687    -1.1942     5.         1.3983     ??         14.534    
 9.1326E-6  0.038938   1.5863    -1.1914     5.         1.7758     ??         12.159    
 9.1597E-6  0.0262     2.0005    -1.1802     5.         2.4963     ??         8.6638    
 9.2091E-6  0.017855   2.5196    -1.1536     5.         3.4145     ??         6.1558    
 9.2586E-6  0.014711   2.8223    -1.1257     5.         3.9725     ??         5.646     
 9.308E-6   0.013238   2.9932    -1.0977     5.         4.3113     ??         5.6549    
 9.3574E-6  0.012514   3.0844    -1.0703     5.         4.5172     ??         5.7262    
 9.4377E-6  0.012005   3.1414    -1.0268     5.         4.6992     ??         5.7329    
 9.5181E-6  0.011929   3.1379    -0.98421    5.         4.7793     ??         5.5909    
 9.6386E-6  0.012072   3.0916    -0.92214    5.         4.8277     ??         5.2575    
 9.759E-6   0.012364   3.0282    -0.86203    5.         4.8437     ??         4.8837    
 9.8795E-6  0.012677   2.9622    -0.8038     5.         4.8515     ??         4.5211    
 10.E-6     0.013023   2.8973    -0.74738    5.         4.8571     ??         4.1813    
 10.333E-6  0.013988   2.7277    -0.6002     5.         4.8702     ??         3.3647    
 11.E-6     0.016115   2.4319    -0.33983    5.         4.8924     ??         2.1798    
 12.E-6     0.019699   2.0795    -0.0020853  5.         4.9191     ??         1.1739    
 13.E-6     0.023637   1.8139     0.26713    5.         4.939      ??         0.73919   
 14.E-6     0.027861   1.6139     0.46185    5.         4.9541     ??         0.59357   
 14.333E-6  0.029656   1.5455     0.514      5.         4.9338     ??         0.56736   
 14.667E-6  0.036003   1.3526     0.56245    5.         4.6779     ??         0.54517   
 15.E-6     1.9764    -1.0613     1.2184     5.         0.084935   ??         33.548    
 15.167E-6  4.3917    -0.99901    2.4379     5.         0.007169   ??         53.596    
 15.259E-6  4.6807    -0.93429    2.5566     5.         0.024565   ??         56.346    
 15.352E-6  4.7964    -0.89292    2.5761     5.         0.0065414  ??         57.549    
 15.444E-6  4.8575    -0.83183    2.573      5.         0.023775   ??         57.715    
 15.583E-6  4.8837    -0.7682     2.5271     5.         0.0068681  ??         57.673    
 15.722E-6  4.9013    -0.68745    2.4847     5.         0.024524   ??         57.175    
 15.861E-6  4.8999    -0.62963    2.4276     5.         0.0074311  ??         56.859    
 16.E-6     4.9105    -0.55424    2.3852     5.         0.025539   ??         56.338    
#Time       v(1)       v(2)       v(3)       v(4)       v(out)     v0t(0)     v0dist(0) 
 16.E-6     4.9105    -0.55424    2.3852     5.         0.025539   ??         3.01E-27  
 16.01E-6   4.9044    -0.55916    2.3754     5.         0.0094104  ??         417.25E-6 
 16.068E-6  4.9115    -0.5243     2.3609     5.         0.023929   ??         0.0014912 
 16.126E-6  4.9074    -0.50643    2.3355     5.         0.010113   ??         0.0049986 
 16.185E-6  4.9141    -0.47288    2.3213     5.         0.02394    ??         0.010722  
 16.287E-6  4.9111    -0.43697    2.2824     5.         0.010794   ??         0.024536  
 16.389E-6  4.9185    -0.38673    2.2549     5.         0.024544   ??         0.045109  
 16.541E-6  4.9165    -0.33272    2.2021     5.         0.011533   ??         0.082845  
 16.694E-6  4.9249    -0.26379    2.1616     5.         0.025721   ??         0.13456   
 16.847E-6  4.9225    -0.21292    2.1122     5.         0.012375   ??         0.19134   
 17.E-6     4.9308    -0.14538    2.0753     5.         0.026926   ??         0.2636    
 17.25E-6   4.9297    -0.061864   2.004      5.         0.013426   ??         0.3883    
 17.5E-6    4.9395     0.038573   1.9479     5.         0.029169   ??         0.54348   
 17.75E-6   4.9376     0.10991    1.884      5.         0.01467    ??         0.69312   
 18.E-6     4.9472     0.19445    1.8357     5.         0.031428   ??         0.86384   
 18.5E-6    4.9477     0.31292    1.7303     5.         0.016568   ??         1.1823    
 19.E-6     4.96       0.43449    1.6498     5.         0.036404   ??         1.5209    
 19.5E-6    4.935      0.51256    1.5543     5.         0.01935    ??         1.8291    
 19.75E-6   4.6872     0.5687     1.3976     5.         0.045981   ??         2.2865    
 20.E-6     4.2526     0.59296    1.1474     5.         0.031563   ??         3.2811    
 20.167E-6  0.12865    1.2038    -0.83115    5.         1.6793     ??         39.036    
 20.259E-6 -0.0025947  2.3087    -0.84851    5.         3.6389     ??         55.849    
 20.316E-6  0.03419    2.6157    -0.80012    5.         4.1896     ??         61.312    
 20.373E-6 -0.0021738  2.7446    -0.79146    5.         4.4692     ??         64.854    
 20.43E-6   0.029343   2.829     -0.74782    5.         4.653      ??         66.501    
 20.487E-6 -0.0015148  2.8384    -0.73817    5.         4.732      ??         67.544    
 20.544E-6  0.027906   2.8538    -0.69662    5.         4.8005     ??         67.753    
 20.601E-6 -766.E-6    2.8269    -0.68632    5.         4.8171     ??         67.946    
 20.658E-6  0.027404   2.8196    -0.64655    5.         4.8481     ??         67.676    
 20.715E-6  10.88E-6   2.7827    -0.63626    5.         4.846      ??         67.614    
 20.772E-6  0.027127   2.7709    -0.59787    5.         4.867      ??         67.242    
 20.829E-6  824.36E-6  2.7313    -0.58774    5.         4.8589     ??         67.099    
 20.886E-6  0.026941   2.7177    -0.55062    5.         4.8756     ??         66.696    
 20.943E-6  0.0016535  2.6783    -0.54065    5.         4.8658     ??         66.535    
 21.E-6     0.026786   2.6644    -0.50476    5.         4.8808     ??         66.136    
 21.083E-6  0.0023814  2.6139    -0.4847     5.         4.8718     ??         65.849    
 21.167E-6  0.02719    2.5888    -0.43982    5.         4.887      ??         65.34     
 21.25E-6   0.0030267  2.54      -0.42101    5.         4.8777     ??         65.076    
 21.375E-6  0.027925   2.499     -0.36235    5.         4.8939     ??         64.411    
 21.5E-6    0.003582   2.4351    -0.33041    5.         4.8855     ??         64.008    
 21.625E-6  0.029009   2.3979    -0.2726     5.         4.9016     ??         63.384    
 21.813E-6  0.0041768  2.3139    -0.22161    5.         4.8945     ??         62.801    
 22.E-6     0.031015   2.2592    -0.14301    5.         4.9124     ??         61.998    
 22.188E-6  0.0048083  2.1817    -0.096786   5.         4.9042     ??         61.512    
 22.458E-6  0.033672   2.1084     0.0069743  5.         4.9242     ??         60.526    
 22.729E-6  0.0055495  2.0135     0.069367   5.         4.9163     ??         59.935    
 23.E-6     0.036994   1.9537     0.16057    5.         4.9364     ??         59.106    
 23.333E-6  0.0064409  1.8537     0.22368    5.         4.9277     ??         58.551    
 23.667E-6  0.041366   1.7931     0.31882    5.         4.9492     ??         57.731    
 24.E-6     0.0074887  1.706      0.36483    5.         4.938      ??         57.362    
 24.333E-6  0.045851   1.6602     0.44787    5.         4.9601     ??         56.671    
 24.667E-6  0.0086666  1.5834     0.47919    5.         4.9464     ??         56.445    
 25.E-6     0.056571   1.4316     0.55533    5.         4.7553     ??         53.223    
 25.333E-6  0.013769   1.206      0.57264    5.         4.4435     ??         49.88     
 25.389E-6  0.081045   1.1159     0.61907    5.         4.2733     ??         47.275    
 25.491E-6  0.033602   0.89161    0.60177    5.         3.911      ??         44.152    
 25.516E-6  0.13394    0.83821    0.66416    5.         3.7874     ??         41.868    
 25.531E-6  0.10995    0.73198    0.65081    5.         3.6137     ??         40.583    
 25.536E-6  0.14512    0.71522    0.67213    5.         3.5732     ??         39.84     
 25.54E-6   0.19638    0.66799    0.70295    5.         3.4949     ??         38.583    
 25.546E-6  0.38029    0.44676    0.81227    5.         3.1691     ??         33.881    
 25.551E-6  0.61383   -0.078852   0.94927    5.         2.3949     ??         26.363    
 25.557E-6  0.82762   -0.81815    1.0725     5.         1.2176     ??         19.884    
 25.563E-6  0.89889   -1.33       1.0548     5.         0.34212    ??         18.565    
 25.567E-6  0.9671    -1.4724     1.0545     5.         0.0962     ??         18.169    
 25.571E-6  1.0976    -1.4825     1.1178     5.         0.071021   ??         17.009    
 25.575E-6  1.2314    -1.4825     1.1866     5.         0.063384   ??         15.836    
 25.58E-6   1.3605    -1.4827     1.253      5.         0.056542   ??         14.747    
 25.592E-6  1.7005    -1.4794     1.4284     5.         0.043988   ??         12.076    
 25.616E-6  2.2891    -1.4654     1.7317     5.         0.031212   ??         8.1291    
 25.671E-6  3.2708    -1.4287     2.2316     5.         0.020778   ??         3.4769    
 25.726E-6  3.8796    -1.39       2.5308     5.         0.016743   ??         1.7825    
 25.78E-6   4.2568    -1.3511     2.7053     5.         0.015104   ??         1.165     
 25.85E-6   4.5395    -1.303      2.8213     5.         0.013899   ??         0.88866   
 25.916E-6  4.6859    -1.2585     2.8663     5.         0.01359    ??         0.77806   
 26.E-6     4.7852    -1.2034     2.8772     5.         0.013297   ??         0.67934   
 26.125E-6  4.8491    -1.1237     2.8496     5.         0.013491   ??         0.54383   
 26.25E-6   4.871     -1.047      2.8011     5.         0.013625   ??         0.41749   
 26.438E-6  4.8836    -0.93689    2.7211     5.         0.014212   ??         0.2601    
 26.719E-6  4.8924    -0.78286    2.603      5.         0.014857   ??         0.10014   
 27.E-6     4.8998    -0.64088    2.4926     5.         0.015788   ??         0.019261  
 27.211E-6  4.9049    -0.54216    2.415      5.         0.016274   ??         0.0011518 
 27.226E-6  4.9054    -0.53509    2.4096     5.         0.016447   ??         0.0010689 
 27.226E-6  4.9054    -0.53498    2.4094     5.         0.016422   ??         0.0010683 
 27.226E-6  4.9055    -0.53503    2.4094     5.         0.016284   ??         0.0010679 
 27.226E-6  4.9054    -0.53496    2.4094     5.         0.016365   ??         0.0010681 
#           v(1)       v(2)       v(3)       v(4)       v(out)    
 0.         0.064086   1.         25.p       5.         5.        
#Time       v(1)       v(2)       v(3)       v(4)       v(out)     v0t(0)     v0dist(0) 
 0.         0.064086   1.         25.p       5.         5.         ??         56.338    
 100.n      0.065047   1.0004     0.030988   5.         5.0004     ??         56.187    
 200.n      0.065062   1.0004     0.061373   5.         5.0005     ??         56.045    
 300.n      0.064962   1.0004     0.089986   5.         5.0004     ??         55.913    
 400.n      0.064951   1.0004     0.11695    5.         5.0004     ??         55.791    
 500.n      0.064924   1.0003     0.14312    5.         5.0003     ??         55.671    
 975.n      0.064794   1.0005     0.25803    5.         5.0005     ??         55.173    
 2.2643u    0.064856   0.99813    0.49956    5.         4.9967     ??         54.158    
 2.4792u    0.070878   0.95657    0.53396    5.         4.9235     ??         53.122    
 2.6359u    0.10987    0.8129     0.57732    5.         4.6593     ??         49.655    
 2.652u     0.12171    0.78659    0.58647    5.         4.6114     ??         48.996    
 2.67u      0.15325    0.7415     0.6072     5.         4.5271     ??         47.736    
 2.675u     0.17038    0.72262    0.61816    5.         4.4926     ??         47.176    
 2.6797u    0.21228    0.68951    0.64356    5.         4.4375     ??         46.119    
 2.6876u    0.44645    0.42553    0.78256    5.         4.0536     ??         39.681    
 2.6955u    0.76767   -0.27315    0.97103    5.         2.971      ??         27.918    
 2.7034u    1.0516    -1.3961     1.134      5.         1.0923     ??         18.304    
 2.7113u    1.1183    -1.963      1.0808     5.         0.11628    ??         18.075    
 2.716u     1.2463    -1.9884     1.1391     5.         0.065225   ??         17.038    
 2.7206u    1.3862    -1.986      1.2118     5.         0.061451   ??         15.849    
 2.7252u    1.5193    -1.9858     1.2801     5.         0.053934   ??         14.772    
 2.7345u    1.7732    -1.982      1.4111     5.         0.044845   ??         12.83     
 2.7537u    2.2436    -1.969      1.6536     5.         0.033845   ??         9.6492    
 2.7927u    2.9945    -1.9364     2.0377     5.         0.02391    ??         5.7021    
 2.8528u    3.7632    -1.8837     2.4212     5.         0.018062   ??         3.0851    
 2.9128u    4.2176    -1.8324     2.6354     5.         0.015683   ??         2.1765    
 2.9729u    4.4863    -1.7825     2.7497     5.         0.014574   ??         1.8215    
 3.0329u    4.6454    -1.7336     2.8051     5.         0.014032   ??         1.6376    
 3.1339u    4.7852    -1.6534     2.8303     5.         0.01372    ??         1.4221    
 3.2349u    4.8422    -1.5756     2.812      5.         0.01375    ??         1.2302    
 3.396u     4.8758    -1.4563     2.7542     5.         0.014055   ??         0.95127   
 3.557u     4.8857    -1.3426     2.6867     5.         0.014458   ??         0.71306   
 3.8638u    4.8955    -1.1401     2.561      5.         0.015308   ??         0.37445   
 4.3359u    4.9071    -0.86183    2.3847     5.         0.016681   ??         0.094703  
 5.2799u    4.9271    -0.40682    2.0889     5.         0.019698   ??         0.10984   
 6.4599u    4.9461     0.049408   1.8058     5.         0.023945   ??         0.70133   
 7.6399u    4.9601     0.38122    1.5965     5.         0.028388   ??         1.4996    
 8.82u      4.0764     0.60332    1.0387     5.         0.058508   ??         3.8498    
 9.0166u    0.14547    1.0575    -0.86031    5.         1.3922     ??         37.704    
