c1 ( 1 0 )  1.n ic= 0.
r1 ( 1 2 )  1.K
v1 ( 2 0 )  DC  1.
#           v(1)       v(c1)      ic(c1)    
 0.         10.n       10.n       0.        
#Time       method(c1) ord(c1)    v(1)       control(0)
 0.        -1.        -1.         10.n       1.        
 0.         4.         0.         10.n       9.        
-1.         4.         0.         0.009901   9.        
-2.         4.         0.         0.009901   9.        
-3.         4.         0.         0.009901   9.        
 10.n       4.         0.         0.009901   9.        
 0.         2.         1.         0.009901   6.        
-1.         2.         1.         0.019753   6.        
-2.         2.         1.         0.019753   6.        
-3.         2.         1.         0.019753   6.        
 20.n       2.         1.         0.019753   6.        
 0.         2.         2.         0.019753   6.        
-1.         2.         2.         0.029506   6.        
-2.         2.         2.         0.029506   6.        
-3.         2.         2.         0.029506   6.        
 30.n       2.         2.         0.029506   6.        
 0.         2.         2.         0.029506   6.        
-1.         2.         2.         0.039163   6.        
-2.         2.         2.         0.039163   6.        
-3.         2.         2.         0.039163   6.        
 40.n       2.         2.         0.039163   6.        
 0.         2.         2.         0.039163   6.        
-1.         2.         2.         0.048724   6.        
-2.         2.         2.         0.048724   6.        
-3.         2.         2.         0.048724   6.        
 50.n       2.         2.         0.048724   6.        
 0.         2.         2.         0.048724   6.        
-1.         2.         2.         0.18829    6.        
-2.         2.         2.         0.18829    6.        
-3.         2.         2.         0.18829    6.        
 208.33n    2.         2.         0.18829    6.        
 0.         2.         2.         0.18829    6.        
-1.         2.         2.         0.30739    6.        
-2.         2.         2.         0.30739    6.        
-3.         2.         2.         0.30739    6.        
 366.67n    2.         2.         0.30739    6.        
 0.         2.         2.         0.30739    6.        
-1.         2.         2.         0.49673    6.        
-2.         2.         2.         0.49673    6.        
-3.         2.         2.         0.49673    6.        
 683.33n    2.         2.         0.49673    6.        
 0.         2.         2.         0.49673    1.        
-1.         2.         2.         0.63432    1.        
-2.         2.         2.         0.63432    1.        
-3.         2.         2.         0.63432    1.        
 1.u        2.         2.         0.63432    1.        
