L: already installed, replacing
stashing as L:0
inductor: already installed, replacing
stashing as inductor:0
#Time       v(nl)      v(nv)     
 0.         0.         0.        
 0.1        0.90616    0.99999   
 0.2        0.81985    0.99998   
 0.3        0.74176    0.99997   
 0.4        0.67111    0.99997   
 0.5        0.60719    0.99996   
 0.6        0.54935    0.99995   
 0.7        0.49703    0.99995   
 0.8        0.44969    0.99994   
 0.9        0.40686    0.99994   
 1.         0.36811    0.99994   
#Time       v(nl)      v(nv)     
 1.         0.36811    0.99994   
 1.1        0.33305    0.99993   
 1.2        0.30132    0.99993   
 1.3        0.27262    0.99993   
 1.4        0.24666    0.99992   
 1.5        0.22316    0.99992   
 1.6       -0.7033    -70.323E-6 
 1.7       -0.63631   -63.625E-6 
 1.8       -0.57571   -57.565E-6 
 1.9       -0.52087   -52.082E-6 
 2.        -0.47126   -47.121E-6 

#Time       v(nl)      v(nv)     
//BUG// v1 restore time mismatch.  t0=1.900000000000, s->t=1.000000000000
//BUG// l1 restore time mismatch.  t0=1.900000000000, s->t=1.000000000000
 1.         0.36811    0.99994   
 1.1        0.33305    0.99993   
 1.2        0.30133    0.99993   
 1.3        0.27263    0.99993   
 1.4        0.24666    0.99992   
 1.5        0.22317    0.99992   
 1.6       -1.6085    -1.0001    
 1.7       -1.4553    -1.        
 1.8       -1.3167    -1.        
 1.9       -1.1913    -1.        
 2.        -1.0778    -1.        
