#Time       v(n1)      v(nb)      v(nv)     
 0.         0.         0.         0.        
 0.1        0.99992    0.2184     0.99992   
 0.2        0.99994    0.39207    0.99994   
 0.3        0.99995    0.52716    0.99995   
 0.4        0.99996    0.63222    0.99996   
 0.5        0.99997    0.71394    0.99997   
 0.6        0.99998    0.77751    0.99998   
 0.7        0.99998    0.82695    0.99998   
 0.8        0.99999    0.8654     0.99999   
 0.9        0.99999    0.89531    0.99999   
 1.         0.99999    0.91857    0.99999   
#Time       v(n1)      v(nb)      v(nv)     
 1.         0.99999    0.91857    0.99999   
 1.1        0.99999    0.9366~    0.99999   
 1.2        1.         0.9507~    1.        
 1.3        1.         0.9616~    1.        
 1.4        1.         0.9702~    1.        
 1.5        1.         0.9768~    1.        
 1.6        76.0~E-6   0.760~     76.~E-6   
 1.7        59.1~E-6   0.591~     59.~E-6   
 1.8        46.0~E-6   0.460~     46.~E-6   
 1.9        35.7~E-6   0.357~     35.~E-6   
 2.         27.8~E-6   0.278~     27.~E-6   

#Time       v(n1)      v(nb)      v(nv)     
//BUG// v1 restore time mismatch.  t0=1.900000000000, s->t=1.000000000000
//BUG// cb restore time mismatch.  t0=1.900000000000, s->t=1.000000000000
 1.         0.99999    0.9185~    0.99999   
 1.1        0.99999    0.9366~    0.99999   
 1.2        1.         0.9506~    1.        
 1.3        1.         0.9616~    1.        
 1.4        1.         0.9701~    1.        
 1.5        1.         0.9768~    1.        
 1.6       -0.9998~    0.53~     -0.999~    
 1.7       -0.9998~    0.19~     -0.999~    
 1.8       -0.9999~   -0.06~     -0.999~    
 1.9       -0.9999~   -0.27~     -0.999~    
 2.        -0.9999~   -0.435~    -0.999~    
