#Time       v(n1)      v(nb)      v(nv)     
 0.         0.         0.         0.        
 0.1        0.99992    0.2184     0.99992   
 0.2        0.99994    0.39207    0.99994   
 0.3        0.99995    0.52716    0.99995   
 0.4        0.99996    0.63222    0.99996   
 0.5        0.99997    0.71394    0.99997   
 0.6        0.99998    0.77751    0.99998   
 0.7        0.99998    0.82695    0.99998   
 0.8        0.99999    0.8654     0.99999   
 0.9        0.99999    0.89531    0.99999   
 1.         0.99999    0.91857    0.99999   
#Time       v(n1)      v(nb)      v(nv)     
 1.         0.99999    0.91857    0.99999   
 1.1        0.99999    0.93666    0.99999   
 1.2        1.         0.95074    1.        
 1.3        1.         0.96168    1.        
 1.4        1.         0.9702     1.        
 1.5        1.         0.97682    1.        
 1.6        76.056E-6  0.76063    76.056E-6 
 1.7        59.156E-6  0.59162    59.156E-6 
 1.8        46.011E-6  0.46016    46.011E-6 
 1.9        35.788E-6  0.35791    35.788E-6 
 2.         27.835E-6  0.27838    27.835E-6 

#Time       v(n1)      v(nb)      v(nv)     
//BUG// v1 restore time mismatch.  t0=1.900000000000, s->t=1.000000000000
//BUG// r1 restore time mismatch.  t0=1.900000000000, s->t=1.000000000000
//BUG// rb restore time mismatch.  t0=1.900000000000, s->t=1.000000000000
//BUG// cb restore time mismatch.  t0=1.900000000000, s->t=1.000000000000
 1.         0.99999    0.91858    0.99999   
 1.1        0.99999    0.93661    0.99999   
 1.2        1.         0.95069    1.        
 1.3        1.         0.96165    1.        
 1.4        1.         0.97017    1.        
 1.5        1.         0.9768     1.        
 1.6       -0.99985    0.53796   -0.99985   
 1.7       -0.99988    0.19651   -0.99988   
 1.8       -0.99991   -0.068437  -0.99991   
 1.9       -0.99993   -0.27472   -0.99993   
 2.        -0.99994   -0.43588   -0.99994   
