#Time       v(n1)      v(n2)      dis(n1)    method(c1) hidden(0) 
 0.         0.         0.         0.        -1.         0.        
 0.01       0.         0.         0.         4.         0.        
 0.02       0.         0.         0.         2.         0.        
 0.1        0.         0.         2.         2.         0.        
 0.2        0.1        99.9u      2.         4.         0.        
 0.3        0.1        199.7u     0.         4.         0.        
 0.4        0.1        299.45u    0.         2.         0.        
 1.         0.1        895.86u    0.         2.         0.        
Gnucap   System status
iterations: op=0, dc=0, tran=28, fourier=0, total=36
transient timesteps: accepted=8, rejected=0, total=8
nodes: user=2, subckt=0, model=0, total=2
dctran density=100.0%, ac density=100.0%
#Time       v(n1)      v(n2)      dis(n1)    method(c1) hidden(0) 
 0.         0.         0.         0.        -1.         0.        
 0.01       0.         0.         0.         2.         0.        
 0.02       0.         0.         0.         2.         0.        
 0.03       0.         0.         0.         2.         0.        
 0.04       0.         0.         0.         2.         0.        
 0.05       0.         0.         0.         2.         0.        
 0.1        0.         0.         2.         2.         0.        
 0.10006    57.87u     16.745p    0.         2.         3.        
 0.10009    86.901u    37.759p    0.         2.         0.        
 0.10012    115.93u    67.2p      0.         2.         0.        
 0.10432    0.004321   93.353n    0.         2.         0.        
 0.14164    0.041641   8.6682u    0.         2.         0.        
 0.2        0.1        49.981u    2.         2.         0.        
 0.20606    0.1        56.039u    0.         2.         2.        
 0.21076    0.1        60.734u    0.         2.         0.        
 0.60538    0.1        454.34u    0.         2.         0.        
 1.         0.1        846.39u    0.         2.         0.        
Gnucap   System status
iterations: op=0, dc=0, tran=81, fourier=0, total=139
transient timesteps: accepted=25, rejected=5, total=30
nodes: user=2, subckt=0, model=0, total=2
dctran density=100.0%, ac density=100.0%
